(0000000006.545142) vcan0 0AE#8180000000000100
(0000000006.545459) vcan0 1A0#004F0000FEFE00D8
(0000000006.545824) vcan0 2A0#0000000000008080
(0000000006.546088) vcan0 4A0#00000000CCFFCCFF
(0000000006.555535) vcan0 0AE#9190000000000100
(0000000006.555589) vcan0 1A0#004F0000FEFE00D9
(0000000006.556051) vcan0 1AC#844400006945FF13
(0000000006.556141) vcan0 2A0#0000000000009090
(0000000006.556427) vcan0 3A0#3BC40000F0FFFF0F
(0000000006.556616) vcan0 4A0#00000000CCFFCCFF
(0000000006.556901) vcan0 4A8#FF3F010000004081
(0000000000.001114) vcan0 5A0#FF000047A400502B
(0000000000.009232) vcan0 0AE#A1A0000000000100
(0000000000.009557) vcan0 1A0#004F0000FEFE00DA
(0000000000.009800) vcan0 2A0#000000000000A0A0
(0000000000.010226) vcan0 4A0#00000000CCFFCCFF
(0000000000.019393) vcan0 0AE#B1B0000000000100
(0000000000.019658) vcan0 1A0#004F0000FEFE00DB
(0000000000.019947) vcan0 1AC#854500006945FF13
(0000000000.020215) vcan0 2A0#000000000000B0B0
(0000000000.020410) vcan0 3A0#3AC50000F0FFFF0F
(0000000000.020758) vcan0 4A0#00000000CCFFCCFF
(0000000000.020888) vcan0 4A8#FF3F010000005091
(0000000000.021225) vcan0 5A0#FF000057A400502B
(0000000000.029117) vcan0 0AE#C1C0000000000100
(0000000000.029430) vcan0 1A0#004F0000FEFE00DC
(0000000000.029770) vcan0 2A0#000000000000C0C0
(0000000000.030009) vcan0 4A0#00000000CCFFCCFF
(0000000000.039509) vcan0 0AE#D1D0000000000100
(0000000000.039611) vcan0 1A0#004F0000FEFE00DD
(0000000000.039892) vcan0 1AC#864600006945FF13
(0000000000.040272) vcan0 2A0#000000000000D0D0
(0000000000.040428) vcan0 3A0#39C60000F0FFFF0F
(0000000000.040679) vcan0 4A0#00000000CCFFCCFF
(0000000000.040912) vcan0 4A8#FF3F0100000060A1
(0000000000.041263) vcan0 5A0#FF000067A400502B
(0000000000.049147) vcan0 0AE#E1E0000000000100
(0000000000.049606) vcan0 1A0#004F0000FEFE00DE
(0000000000.049773) vcan0 2A0#000000000000E0E0
(0000000000.050281) vcan0 4A0#00000000CCFFCCFF
(0000000000.059452) vcan0 0AE#F1F0000000000100
(0000000000.059604) vcan0 1A0#00480000FEFE00DF
(0000000000.059903) vcan0 1AC#874700006945FF13
(0000000000.060254) vcan0 2A0#000000000000F0F0
(0000000000.060402) vcan0 3A0#38C70000F0FFFF0F
(0000000000.060730) vcan0 4A0#00000000CCFFCCFF
(0000000000.060896) vcan0 4A8#FF3F0100000070B1
(0000000000.061298) vcan0 5A0#FF000074A400502B
(0000000000.069224) vcan0 0AE#0100000000000100
(0000000000.069502) vcan0 1A0#00480000FEFE00D0
(0000000000.069848) vcan0 2A0#0000000000000000
(0000000000.070248) vcan0 4A0#00000000CCFFCCFF
(0000000000.079388) vcan0 0AE#1110000000000100
(0000000000.079592) vcan0 1A0#00480000FEFE00D1
(0000000000.079943) vcan0 1AC#884800006945FF13
(0000000000.080212) vcan0 2A0#0000000000001010
(0000000000.080447) vcan0 3A0#37C80000F0FFFF0F
(0000000000.080708) vcan0 4A0#00000000CCFFCCFF
(0000000000.080968) vcan0 4A8#FF3F010000008041
(0000000000.081205) vcan0 5A0#FF000084A400502B
(0000000000.081444) vcan0 723#04030000020000
(0000000000.089201) vcan0 0AE#2120000000000100
(0000000000.089477) vcan0 1A0#00480000FEFE00D2
(0000000000.089832) vcan0 2A0#0000000000002020
(0000000000.090141) vcan0 4A0#00000000CCFFCCFF
(0000000000.099393) vcan0 0AE#3130000000000100
(0000000000.099618) vcan0 1A0#00480000FEFE00D3
(0000000000.099856) vcan0 1AC#894900006945FF13
(0000000000.100118) vcan0 2A0#0000000000003030
(0000000000.100394) vcan0 3A0#36C90000F0FFFF0F
(0000000000.100653) vcan0 4A0#00000000CCFFCCFF
(0000000000.100911) vcan0 4A8#FF3F010000009051
(0000000000.101143) vcan0 5A0#FF000094A400502B
(0000000000.109179) vcan0 0AE#4140000000000100
(0000000000.109483) vcan0 1A0#00480000FEFE00D4
(0000000000.109832) vcan0 2A0#0000000000004040
(0000000000.110056) vcan0 4A0#00000000CCFFCCFF
(0000000000.119376) vcan0 0AE#5150000000000100
(0000000000.119609) vcan0 1A0#00480000FEFE00D5
(0000000000.119837) vcan0 1AC#8A4A00006945FF13
(0000000000.120157) vcan0 2A0#0000000000005050
(0000000000.120400) vcan0 3A0#35CA0000F0FFFF0F
(0000000000.120666) vcan0 4A0#00000000CCFFCCFF
(0000000000.120920) vcan0 4A8#FF3F01000000A061
(0000000000.121108) vcan0 5A0#FF0000A4A400502B
(0000000000.129161) vcan0 0AE#6160000000000100
(0000000000.129485) vcan0 1A0#00480000FEFE00D6
(0000000000.129826) vcan0 2A0#0000000000006060
(0000000000.130055) vcan0 4A0#00000000CCFFCCFF
(0000000000.139284) vcan0 0AE#7170000000000100
(0000000000.139536) vcan0 1A0#00480000FEFE00D7
(0000000000.139817) vcan0 1AC#8B4B00006945FF13
(0000000000.140086) vcan0 2A0#0000000000007070
(0000000000.140322) vcan0 3A0#34CB0000F0FFFF0F
(0000000000.140559) vcan0 4A0#00000000CCFFCCFF
(0000000000.140823) vcan0 4A8#FF3F01000000B071
(0000000000.141057) vcan0 5A0#FF0000B4A400502B
(0000000000.149108) vcan0 0AE#8180000000000100
(0000000000.149383) vcan0 1A0#00480000FEFE00D8
(0000000000.149722) vcan0 2A0#0000000000008080
(0000000000.149980) vcan0 4A0#00000000CCFFCCFF
(0000000000.159332) vcan0 0AE#9190000000000100
(0000000000.159562) vcan0 1A0#00480000FEFE00D9
(0000000000.159871) vcan0 1AC#8C4C00006945FF13
(0000000000.160148) vcan0 2A0#0000000000009090
(0000000000.160385) vcan0 3A0#33CC0000F0FFFF0F
(0000000000.160729) vcan0 4A0#00000000CCFFCCFF
(0000000000.160875) vcan0 4A8#FF3F01000000C001
(0000000000.161240) vcan0 5A0#FF0000C4A400502B
(0000000000.169280) vcan0 0AE#A1A0000000000100
(0000000000.169480) vcan0 1A0#00480000FEFE00DA
(0000000000.169905) vcan0 2A0#000000000000A0A0
(0000000000.170041) vcan0 4A0#00000000CCFFCCFF
(0000000000.179621) vcan0 0AE#B1B0000000000100
(0000000000.179629) vcan0 1A0#00480000FEFE00DB
(0000000000.179909) vcan0 1AC#8D4D00006945FF13
(0000000000.180250) vcan0 2A0#000000000000B0B0
(0000000000.180435) vcan0 3A0#32CD0000F0FFFF0F
(0000000000.180790) vcan0 4A0#00000000CCFFCCFF
(0000000000.180969) vcan0 4A8#FF3F01000000D011
(0000000000.181197) vcan0 5A0#FF0000D4A400502B
(0000000000.181429) vcan0 723#04030000020000
(0000000000.189290) vcan0 0AE#C1C0000000000100
(0000000000.189464) vcan0 1A0#00480000FEFE00DC
(0000000000.189929) vcan0 2A0#000000000000C0C0
(0000000000.190171) vcan0 4A0#00000000CCFFCCFF
(0000000000.199433) vcan0 0AE#D1D0000000000100
(0000000000.199568) vcan0 1A0#00480000FEFE00DD
(0000000000.199978) vcan0 1AC#8E4E00006945FF13
(0000000000.200091) vcan0 2A0#000000000000D0D0
(0000000000.200365) vcan0 3A0#31CE0000F0FFFF0F
(0000000000.200718) vcan0 4A0#00000000CCFFCCFF
(0000000000.200800) vcan0 4A8#FF3F01000000E021
(0000000000.201207) vcan0 5A0#FF0000E4A400502B
(0000000000.209142) vcan0 0AE#E1E0000000000100
(0000000000.209533) vcan0 1A0#00480000FEFE00DE
(0000000000.209881) vcan0 2A0#000000000000E0E0
(0000000000.210197) vcan0 4A0#00000000CCFFCCFF
(0000000000.219419) vcan0 0AE#F1F0000000000100
(0000000000.219579) vcan0 1A0#00480000FEFE00DF
(0000000000.219910) vcan0 1AC#8F4F00006945FF13
(0000000000.220205) vcan0 2A0#000000000000F0F0
(0000000000.220444) vcan0 3A0#30CF0000F0FFFF0F
(0000000000.220682) vcan0 4A0#00000000CCFFCCFF
(0000000000.220899) vcan0 4A8#FF3F01000000F031
(0000000000.221315) vcan0 5A0#FF0000F4A400502B
(0000000000.229149) vcan0 0AE#0100000000000100
(0000000000.229485) vcan0 1A0#00480000FEFE00D0
(0000000000.229759) vcan0 2A0#0000000000000000
(0000000000.230117) vcan0 4A0#00000000CCFFCCFF
(0000000000.239367) vcan0 0AE#1110000000000100
(0000000000.239603) vcan0 1A0#00480000FEFE00D1
(0000000000.239899) vcan0 1AC#804000006945FF13
(0000000000.240156) vcan0 2A0#0000000000001010
(0000000000.240391) vcan0 3A0#3FC00000F0FFFF0F
(0000000000.240673) vcan0 4A0#00000000CCFFCCFF
(0000000000.240915) vcan0 4A8#FF3F0100000000C1
(0000000000.241147) vcan0 5A0#FF000004A400502B
(0000000000.249154) vcan0 0AE#2120000000000100
(0000000000.249464) vcan0 1A0#00480000FEFE00D2
(0000000000.249818) vcan0 2A0#0000000000002020
(0000000000.249989) vcan0 4A0#00000000CCFFCCFF
(0000000000.259366) vcan0 0AE#3130000000000100
(0000000000.259603) vcan0 1A0#00480000FEFE00D3
(0000000000.259842) vcan0 1AC#814100006945FF13
(0000000000.260153) vcan0 2A0#0000000000003030
(0000000000.260416) vcan0 3A0#3EC10000F0FFFF0F
(0000000000.260652) vcan0 4A0#00000000CCFFCCFF
(0000000000.260904) vcan0 4A8#FF3F0100000010D1
(0000000000.261147) vcan0 5A0#FF000014A400502B
(0000000000.269137) vcan0 0AE#4140000000000100
(0000000000.269442) vcan0 1A0#00480000FEFE00D4
(0000000000.269789) vcan0 2A0#0000000000004040
(0000000000.270020) vcan0 4A0#00000000CCFFCCFF
(0000000000.279423) vcan0 0AE#5150000000000100
(0000000000.279630) vcan0 1A0#00480000FEFE00D5
(0000000000.279876) vcan0 1AC#824200006945FF13
(0000000000.280214) vcan0 2A0#0000000000005050
(0000000000.280441) vcan0 3A0#3DC20000F0FFFF0F
(0000000000.280623) vcan0 4A0#00000000CCFFCCFF
(0000000000.280927) vcan0 4A8#FF3F0100000020E1
(0000000000.281214) vcan0 5A0#FF000024A400502B
(0000000000.281355) vcan0 723#04030000020000
(0000000000.289137) vcan0 0AE#6160000000000100
(0000000000.289439) vcan0 1A0#00480000FEFE00D6
(0000000000.289800) vcan0 2A0#0000000000006060
(0000000000.290037) vcan0 4A0#00000000CCFFCCFF
(0000000000.299330) vcan0 0AE#7170000000000100
(0000000000.299573) vcan0 1A0#00480000FEFE00D7
(0000000000.299816) vcan0 1AC#834300006945FF13
(0000000000.300234) vcan0 2A0#0000000000007070
(0000000000.300325) vcan0 3A0#3CC30000F0FFFF0F
(0000000000.300712) vcan0 4A0#00000000CCFFCCFF
(0000000000.300870) vcan0 4A8#FF3F0100000030F1
(0000000000.301205) vcan0 5A0#FF000034A400502B
(0000000000.309244) vcan0 0AE#8180000000000100
(0000000000.309410) vcan0 1A0#00480000FEFE00D8
(0000000000.309848) vcan0 2A0#0000000000008080
(0000000000.309994) vcan0 4A0#00000000CCFFCCFF
(0000000000.319381) vcan0 0AE#9190000000000100
(0000000000.319646) vcan0 1A0#00480000FEFE00D9
(0000000000.319801) vcan0 1AC#844400006945FF13
(0000000000.320167) vcan0 2A0#0000000000009090
(0000000000.320450) vcan0 3A0#3BC40000F0FFFF0F
(0000000000.320603) vcan0 4A0#00000000CCFFCCFF
(0000000000.320885) vcan0 4A8#FF3F010000004081
(0000000000.321164) vcan0 5A0#FF000044A400502B
(0000000000.329187) vcan0 0AE#A1A0000000000100
(0000000000.329476) vcan0 1A0#00480000FEFE00DA
(0000000000.329806) vcan0 2A0#000000000000A0A0
(0000000000.330139) vcan0 4A0#00000000CCFFCCFF
(0000000000.339353) vcan0 0AE#B1B0000000000100
(0000000000.339608) vcan0 1A0#00480000FEFE00DB
(0000000000.339844) vcan0 1AC#854500006945FF13
(0000000000.340138) vcan0 2A0#000000000000B0B0
(0000000000.340396) vcan0 3A0#3AC50000F0FFFF0F
(0000000000.340642) vcan0 4A0#00000000CCFFCCFF
(0000000000.340841) vcan0 4A8#FF3F010000005091
(0000000000.341137) vcan0 5A0#FF000054A400502B
(0000000000.349100) vcan0 0AE#C1C0000000000100
(0000000000.349395) vcan0 1A0#00480000FEFE00DC
(0000000000.349736) vcan0 2A0#000000000000C0C0
(0000000000.349974) vcan0 4A0#00000000CCFFCCFF
(0000000000.359323) vcan0 0AE#D1D0000000000100
(0000000000.359528) vcan0 1A0#00480000FEFE00DD
(0000000000.359820) vcan0 1AC#864600006945FF13
(0000000000.360077) vcan0 2A0#000000000000D0D0
(0000000000.360314) vcan0 3A0#39C60000F0FFFF0F
(0000000000.360569) vcan0 4A0#00000000CCFFCCFF
(0000000000.360809) vcan0 4A8#FF3F0100000060A1
(0000000000.361066) vcan0 5A0#FF000064A400502B
(0000000000.369070) vcan0 0AE#E1E0000000000100
(0000000000.369379) vcan0 1A0#00480000FEFE00DE
(0000000000.369721) vcan0 2A0#000000000000E0E0
(0000000000.369961) vcan0 4A0#00000000CCFFCCFF
(0000000000.379279) vcan0 0AE#F1F0000000000100
(0000000000.379535) vcan0 1A0#00480000FEFE00DF
(0000000000.379819) vcan0 1AC#874700006945FF13
(0000000000.380058) vcan0 2A0#000000000000F0F0
(0000000000.380294) vcan0 3A0#38C70000F0FFFF0F
(0000000000.380559) vcan0 4A0#00000000CCFFCCFF
(0000000000.380798) vcan0 4A8#FF3F0100000070B1
(0000000000.381057) vcan0 5A0#FF000074A400502B
(0000000000.381267) vcan0 723#04030000020000
(0000000000.389098) vcan0 0AE#0100000000000100
(0000000000.389398) vcan0 1A0#00480000FEFE00D0
(0000000000.389736) vcan0 2A0#0000000000000000
(0000000000.390057) vcan0 4A0#00000000CCFFCCFF
(0000000000.399308) vcan0 0AE#1110000000000100
(0000000000.399558) vcan0 1A0#00480000FEFE00D1
(0000000000.399839) vcan0 1AC#884800006945FF13
(0000000000.400090) vcan0 2A0#0000000000001010
(0000000000.400369) vcan0 3A0#37C80000F0FFFF0F
(0000000000.400624) vcan0 4A0#00000000CCFFCCFF
(0000000000.400894) vcan0 4A8#FF3F010000008041
(0000000000.401118) vcan0 5A0#FF000084A400502B
(0000000000.409271) vcan0 0AE#2120000000000100
(0000000000.409484) vcan0 1A0#00480000FEFE00D2
(0000000000.409966) vcan0 2A0#0000000000002020
(0000000000.410045) vcan0 4A0#00000000CCFFCCFF
(0000000000.419598) vcan0 0AE#3130000000000100
(0000000000.419607) vcan0 1A0#00480000FEFE00D3
(0000000000.419877) vcan0 1AC#894900006945FF13
(0000000000.420221) vcan0 2A0#0000000000003030
(0000000000.420369) vcan0 3A0#36C90000F0FFFF0F
(0000000000.420763) vcan0 4A0#00000000CCFFCCFF
(0000000000.420890) vcan0 4A8#FF3F010000009051
(0000000000.421232) vcan0 5A0#FF000094A400502B
(0000000000.429256) vcan0 0AE#4140000000000100
(0000000000.429513) vcan0 1A0#00480000FEFE00D4
(0000000000.429943) vcan0 2A0#0000000000004040
(0000000000.430059) vcan0 4A0#00000000CCFFCCFF
(0000000000.439350) vcan0 0AE#5150000000000100
(0000000000.439578) vcan0 1A0#00480000FEFE00D5
(0000000000.439910) vcan0 1AC#8A4A00006945FF13
(0000000000.440131) vcan0 2A0#0000000000005050
(0000000000.440367) vcan0 3A0#35CA0000F0FFFF0F
(0000000000.440638) vcan0 4A0#00000000CCFFCCFF
(0000000000.440873) vcan0 4A8#FF3F01000000A061
(0000000000.441133) vcan0 5A0#FF0000A4A400502B
(0000000000.449163) vcan0 0AE#6160000000000100
(0000000000.449452) vcan0 1A0#00480000FEFE00D6
(0000000000.449793) vcan0 2A0#0000000000006060
(0000000000.449991) vcan0 4A0#00000000CCFFCCFF
(0000000000.459318) vcan0 0AE#7170000000000100
(0000000000.459579) vcan0 1A0#00480000FEFE00D7
(0000000000.459841) vcan0 1AC#8B4B00006945FF13
(0000000000.460131) vcan0 2A0#0000000000007070
(0000000000.460367) vcan0 3A0#34CB0000F0FFFF0F
(0000000000.460600) vcan0 4A0#00000000CCFFCCFF
(0000000000.460853) vcan0 4A8#FF3F01000000B071
(0000000000.461094) vcan0 5A0#FF0000B4A400502B
(0000000000.469100) vcan0 0AE#8180000000000100
(0000000000.469414) vcan0 1A0#00480000FEFE00D8
(0000000000.469756) vcan0 2A0#0000000000008080
(0000000000.469997) vcan0 4A0#00000000CCFFCCFF
(0000000000.479390) vcan0 0AE#9190000000000100
(0000000000.479605) vcan0 1A0#00480000FEFE00D9
(0000000000.479880) vcan0 1AC#8C4C00006945FF13
(0000000000.480223) vcan0 2A0#0000000000009090
(0000000000.480394) vcan0 3A0#33CC0000F0FFFF0F
(0000000000.480722) vcan0 4A0#00000000CCFFCCFF
(0000000000.480828) vcan0 4A8#FF3F01000000C001
(0000000000.481275) vcan0 5A0#FF0000C4A400502B
(0000000000.481335) vcan0 723#04030000020000
(0000000000.489304) vcan0 0AE#A1A0000000000100
(0000000000.489455) vcan0 1A0#00480000FEFE00DA
(0000000000.489928) vcan0 2A0#000000000000A0A0
(0000000000.490076) vcan0 4A0#00000000CCFFCCFF
(0000000000.499484) vcan0 0AE#B1B0000000000100
(0000000000.499615) vcan0 1A0#00480000FEFE00DB
(0000000000.499882) vcan0 1AC#8D4D00006945FF13
(0000000000.500094) vcan0 2A0#000000000000B0B0
(0000000000.500474) vcan0 3A0#32CD0000F0FFFF0F
(0000000000.500664) vcan0 4A0#00000000CCFFCCFF
(0000000000.500918) vcan0 4A8#FF3F01000000D011
(0000000000.501147) vcan0 5A0#FF0000D4A400502B
(0000000000.509305) vcan0 0AE#C1C0000000000100
(0000000000.509465) vcan0 1A0#00480000FEFE00DC
(0000000000.509899) vcan0 2A0#000000000000C0C0
(0000000000.510041) vcan0 4A0#00000000CCFFCCFF
(0000000000.519385) vcan0 0AE#D1D0000000000100
(0000000000.519608) vcan0 1A0#00480000FEFE00DD
(0000000000.519887) vcan0 1AC#8E4E00006945FF13
(0000000000.520231) vcan0 2A0#000000000000D0D0
(0000000000.520380) vcan0 3A0#31CE0000F0FFFF0F
(0000000000.520724) vcan0 4A0#00000000CCFFCCFF
(0000000000.520893) vcan0 4A8#FF3F01000000E021
(0000000000.521220) vcan0 5A0#FF0000E4A400502B
(0000000000.529231) vcan0 0AE#E1E0000000000100
(0000000000.529457) vcan0 1A0#00480000FEFE00DE
(0000000000.529844) vcan0 2A0#000000000000E0E0
(0000000000.530071) vcan0 4A0#00000000CCFFCCFF
(0000000000.539339) vcan0 0AE#F1F0000000000100
(0000000000.539563) vcan0 1A0#00480000FEFE00DF
(0000000000.539886) vcan0 1AC#8F4F00006945FF13
(0000000000.540110) vcan0 2A0#000000000000F0F0
(0000000000.540388) vcan0 3A0#30CF0000F0FFFF0F
(0000000000.540649) vcan0 4A0#00000000CCFFCCFF
(0000000000.540952) vcan0 4A8#FF3F01000000F031
(0000000000.541209) vcan0 5A0#FF0000F4A400502B
(0000000000.549192) vcan0 0AE#0100000000000100
(0000000000.549510) vcan0 1A0#00480000FEFE00D0
(0000000000.549833) vcan0 2A0#0000000000000000
(0000000000.550064) vcan0 4A0#00000000CCFFCCFF
(0000000000.559420) vcan0 0AE#1110000000000100
(0000000000.559639) vcan0 1A0#004F0000FEFE00D1
(0000000000.559948) vcan0 1AC#804000006945FF13
(0000000000.560190) vcan0 2A0#0000000000001010
(0000000000.560465) vcan0 3A0#3FC00000F0FFFF0F
(0000000000.560708) vcan0 4A0#00000000CCFFCCFF
(0000000000.560924) vcan0 4A8#FF3F0100000000C1
(0000000000.561164) vcan0 5A0#FF000007A400502B
(0000000000.569207) vcan0 0AE#2120000000000100
(0000000000.569499) vcan0 1A0#004F0000FEFE00D2
(0000000000.569854) vcan0 2A0#0000000000002020
(0000000000.570097) vcan0 4A0#00000000CCFFCCFF
(0000000000.579398) vcan0 0AE#3130000000000100
(0000000000.579632) vcan0 1A0#004F0000FEFE00D3
(0000000000.579963) vcan0 1AC#814100006945FF13
(0000000000.580185) vcan0 2A0#0000000000003030
(0000000000.580443) vcan0 3A0#3EC10000F0FFFF0F
(0000000000.580717) vcan0 4A0#00000000CCFFCCFF
(0000000000.580961) vcan0 4A8#FF3F0100000010D1
(0000000000.581193) vcan0 5A0#FF000017A400502B
(0000000000.581431) vcan0 723#04030000020000
(0000000000.589213) vcan0 0AE#4140000000000100
(0000000000.589488) vcan0 1A0#004F0000FEFE00D4
(0000000000.589826) vcan0 2A0#0000000000004040
(0000000000.590070) vcan0 4A0#00000000CCFFCCFF
(0000000000.599364) vcan0 0AE#5150000000000100
(0000000000.599577) vcan0 1A0#004F0000FEFE00D5
(0000000000.599888) vcan0 1AC#824200006945FF13
(0000000000.600139) vcan0 2A0#0000000000005050
(0000000000.600413) vcan0 3A0#3DC20000F0FFFF0F
(0000000000.600676) vcan0 4A0#00000000CCFFCCFF
(0000000000.600898) vcan0 4A8#FF3F0100000020E1
(0000000000.601118) vcan0 5A0#FF000027A400502B
(0000000000.609145) vcan0 0AE#6160000000000100
(0000000000.609455) vcan0 1A0#004F0000FEFE00D6
(0000000000.609805) vcan0 2A0#0000000000006060
(0000000000.610035) vcan0 4A0#00000000CCFFCCFF
(0000000000.619336) vcan0 0AE#7170000000000100
(0000000000.619603) vcan0 1A0#004F0000FEFE00D7
(0000000000.619909) vcan0 1AC#834300006945FF13
(0000000000.620140) vcan0 2A0#0000000000007070
(0000000000.620385) vcan0 3A0#3CC30000F0FFFF0F
(0000000000.620620) vcan0 4A0#00000000CCFFCCFF
(0000000000.620888) vcan0 4A8#FF3F0100000030F1
(0000000000.621145) vcan0 5A0#FF000037A400502B
(0000000000.629110) vcan0 0AE#8180000000000100
(0000000000.629435) vcan0 1A0#004F0000FEFE00D8
(0000000000.629773) vcan0 2A0#0000000000008080
(0000000000.630038) vcan0 4A0#00000000CCFFCCFF
(0000000000.639266) vcan0 0AE#9190000000000100
(0000000000.639520) vcan0 1A0#004F0000FEFE00D9
(0000000000.639819) vcan0 1AC#844400006945FF13
(0000000000.640072) vcan0 2A0#0000000000009090
(0000000000.640339) vcan0 3A0#3BC40000F0FFFF0F
(0000000000.640566) vcan0 4A0#00000000CCFFCCFF
(0000000000.640980) vcan0 4A8#FF3F030000004083
(0000000000.641064) vcan0 5A0#FF000047A400502B
(0000000000.649153) vcan0 0AE#A1A0000000000100
(0000000000.649424) vcan0 1A0#004F0000FEFE00DA
(0000000000.649770) vcan0 2A0#000000000000A0A0
(0000000000.650034) vcan0 4A0#00000000CCFFCCFF
(0000000000.659391) vcan0 0AE#B1B0000000000100
(0000000000.659637) vcan0 1A0#004F0000FEFE00DB
(0000000000.659901) vcan0 1AC#854500006945FF13
(0000000000.660253) vcan0 2A0#000000000000B0B0
(0000000000.660384) vcan0 3A0#3AC50000F0FFFF0F
(0000000000.660753) vcan0 4A0#00000000CCFFCCFF
(0000000000.660870) vcan0 4A8#FF3F010000005091
(0000000000.661144) vcan0 5A0#FF000057A400502B
(0000000000.669204) vcan0 0AE#C1C0000000000100
(0000000000.669492) vcan0 1A0#004F0000FEFE00DC
(0000000000.669732) vcan0 2A0#000000000000C0C0
(0000000000.669995) vcan0 4A0#00000000CCFFCCFF
(0000000000.679464) vcan0 0AE#D1D0000000000100
(0000000000.679592) vcan0 1A0#004F0000FEFE00DD
(0000000000.679963) vcan0 1AC#864600006945FF13
(0000000000.680103) vcan0 2A0#000000000000D0D0
(0000000000.680520) vcan0 3A0#39C60000F0FFFF0F
(0000000000.680633) vcan0 4A0#00000000CCFFCCFF
(0000000000.680912) vcan0 4A8#FF3F0100000060A1
(0000000000.681100) vcan0 5A0#FF000067A400502B
(0000000000.681426) vcan0 723#04030000020000
(0000000000.689203) vcan0 0AE#E1E0000000000100
(0000000000.689524) vcan0 1A0#004F0000FEFE00DE
(0000000000.689836) vcan0 2A0#000000000000E0E0
(0000000000.690078) vcan0 4A0#00000000CCFFCCFF
(0000000000.699366) vcan0 0AE#F1F0000000000100
(0000000000.699628) vcan0 1A0#004F0000FEFE00DF
(0000000000.699805) vcan0 1AC#874700006945FF13
(0000000000.700176) vcan0 2A0#000000000000F0F0
(0000000000.700370) vcan0 3A0#38C70000F0FFFF0F
(0000000000.700641) vcan0 4A0#00000000CCFFCCFF
(0000000000.700779) vcan0 4A8#FF3F0100000070B1
(0000000000.701153) vcan0 5A0#FF000077A400502B
(0000000000.709130) vcan0 0AE#0100000000000100
(0000000000.709442) vcan0 1A0#004F0000FEFE00D0
(0000000000.709794) vcan0 2A0#0000000000000000
(0000000000.710003) vcan0 4A0#00000000CCFFCCFF
(0000000000.719361) vcan0 0AE#1110000000000100
(0000000000.719563) vcan0 1A0#004F0000FEFE00D1
(0000000000.719839) vcan0 1AC#884800006945FF13
(0000000000.720149) vcan0 2A0#0000000000001010
(0000000000.720382) vcan0 3A0#37C80000F0FFFF0F
(0000000000.720633) vcan0 4A0#00000000CCFFCCFF
(0000000000.720831) vcan0 4A8#FF3F010000008041
(0000000000.721166) vcan0 5A0#FF000087A400502B
(0000000000.729204) vcan0 0AE#2120000000000100
(0000000000.729460) vcan0 1A0#004F0000FEFE00D2
(0000000000.729797) vcan0 2A0#0000000000002020
(0000000000.730046) vcan0 4A0#00000000CCFFCCFF
(0000000000.739351) vcan0 0AE#3130000000000100
(0000000000.739611) vcan0 1A0#004F0000FEFE00D3
(0000000000.739839) vcan0 1AC#894900006945FF13
(0000000000.740172) vcan0 2A0#0000000000003030
(0000000000.740386) vcan0 3A0#36C90000F0FFFF0F
(0000000000.740623) vcan0 4A0#00000000CCFFCCFF
(0000000000.740825) vcan0 4A8#FF3F010000009051
(0000000000.741163) vcan0 5A0#FF000097A400502B
(0000000000.749161) vcan0 0AE#4140000000000100
(0000000000.749479) vcan0 1A0#004F0000FEFE00D4
(0000000000.749834) vcan0 2A0#0000000000004040
(0000000000.750009) vcan0 4A0#00000000CCFFCCFF
(0000000000.759369) vcan0 0AE#5150000000000100
(0000000000.759598) vcan0 1A0#004F0000FEFE00D5
(0000000000.759830) vcan0 1AC#8A4A00006945FF13
(0000000000.760159) vcan0 2A0#0000000000005050
(0000000000.760422) vcan0 3A0#35CA0000F0FFFF0F
(0000000000.760662) vcan0 4A0#00000000CCFFCCFF
(0000000000.760928) vcan0 4A8#FF3F01000000A061
(0000000000.761156) vcan0 5A0#FF0000A7A400502B
(0000000000.769159) vcan0 0AE#6160000000000100
(0000000000.769431) vcan0 1A0#004F0000FEFE00D6
(0000000000.769802) vcan0 2A0#0000000000006060
(0000000000.769983) vcan0 4A0#00000000CCFFCCFF
(0000000000.779331) vcan0 0AE#7170000000000100
(0000000000.779584) vcan0 1A0#004F0000FEFE00D7
(0000000000.779882) vcan0 1AC#8B4B00006945FF13
(0000000000.780142) vcan0 2A0#0000000000007070
(0000000000.780409) vcan0 3A0#34CB0000F0FFFF0F
(0000000000.780620) vcan0 4A0#00000000CCFFCCFF
(0000000000.780901) vcan0 4A8#FF3F01000000B071
(0000000000.781130) vcan0 5A0#FF0000B7A400502B
(0000000000.781361) vcan0 723#04030000020000
(0000000000.789154) vcan0 0AE#8180000000000100
(0000000000.789477) vcan0 1A0#004F0000FEFE00D8
(0000000000.789814) vcan0 2A0#0000000000008080
(0000000000.790046) vcan0 4A0#00000000CCFFCCFF
(0000000000.799331) vcan0 0AE#9190000000000100
(0000000000.799594) vcan0 1A0#004F0000FEFE00D9
(0000000000.799889) vcan0 1AC#8C4C00006945FF13
(0000000000.800116) vcan0 2A0#0000000000009090
(0000000000.800417) vcan0 3A0#33CC0000F0FFFF0F
(0000000000.800641) vcan0 4A0#00000000CCFFCCFF
(0000000000.800893) vcan0 4A8#FF3F01000000C001
(0000000000.801130) vcan0 5A0#FF0000C7A400502B
(0000000000.809243) vcan0 0AE#A1A0000000000100
(0000000000.809415) vcan0 1A0#004F0000FEFE00DA
(0000000000.809868) vcan0 2A0#000000000000A0A0
(0000000000.810023) vcan0 4A0#00000000CCFFCCFF
(0000000000.819457) vcan0 0AE#B1B0000000000100
(0000000000.819549) vcan0 1A0#004F0000FEFE00DB
(0000000000.819821) vcan0 1AC#8D4D00006945FF13
(0000000000.820250) vcan0 2A0#000000000000B0B0
(0000000000.820344) vcan0 3A0#32CD0000F0FFFF0F
(0000000000.820592) vcan0 4A0#00000000CCFFCCFF
(0000000000.820961) vcan0 4A8#FF3F01000000D011
(0000000000.821129) vcan0 5A0#FF0000D7A400502B
(0000000000.829108) vcan0 0AE#C1C0000000000100
(0000000000.829366) vcan0 1A0#004F0000FEFE00DC
(0000000000.829742) vcan0 2A0#000000000000C0C0
(0000000000.830071) vcan0 4A0#00000000CCFFCCFF
(0000000000.839534) vcan0 0AE#D1D0000000000100
(0000000000.839541) vcan0 1A0#004F0000FEFE00DD
(0000000000.839834) vcan0 1AC#8E4E00006945FF13
(0000000000.840362) vcan0 2A0#000000000000D0D0
(0000000000.840370) vcan0 3A0#31CE0000F0FFFF0F
(0000000000.840633) vcan0 4A0#00000000CCFFCCFF
(0000000000.840820) vcan0 4A8#FF3F01000000E021
(0000000000.841190) vcan0 5A0#FF0000E7A400502B
(0000000000.849114) vcan0 0AE#E1E0000000000100
(0000000000.849398) vcan0 1A0#004F0000FEFE00DE
(0000000000.849740) vcan0 2A0#000000000000E0E0
(0000000000.850006) vcan0 4A0#00000000CCFFCCFF
(0000000000.859283) vcan0 0AE#F1F0000000000100
(0000000000.859539) vcan0 1A0#004F0000FEFE00DF
(0000000000.859780) vcan0 1AC#8F4F00006945FF13
(0000000000.860103) vcan0 2A0#000000000000F0F0
(0000000000.860317) vcan0 3A0#30CF0000F0FFFF0F
(0000000000.860580) vcan0 4A0#00000000CCFFCCFF
(0000000000.860779) vcan0 4A8#FF3F01000000F031
(0000000000.861106) vcan0 5A0#FF0000F7A400502B
(0000000000.869127) vcan0 0AE#0100000000000100
(0000000000.869401) vcan0 1A0#004F0000FEFE00D0
(0000000000.869941) vcan0 2A0#0000000000000000
(0000000000.869944) vcan0 4A0#00000000CCFFCCFF
(0000000000.879348) vcan0 0AE#1110000000000100
(0000000000.879593) vcan0 1A0#004F0000FEFE00D1
(0000000000.879778) vcan0 1AC#804000006945FF13
(0000000000.880209) vcan0 2A0#0000000000001010
(0000000000.880404) vcan0 3A0#3FC00000F0FFFF0F
(0000000000.880662) vcan0 4A0#00000000CCFFCCFF
(0000000000.880859) vcan0 4A8#FF3F0100000000C1
(0000000000.881102) vcan0 5A0#FF000007A400502B
(0000000000.881340) vcan0 723#04030000020000
(0000000000.889216) vcan0 0AE#2120000000000100
(0000000000.889514) vcan0 1A0#004F0000FEFE00D2
(0000000000.889861) vcan0 2A0#0000000000002020
(0000000000.890014) vcan0 4A0#00000000CCFFCCFF
(0000000000.899366) vcan0 0AE#3130000000000100
(0000000000.899596) vcan0 1A0#004F0000FEFE00D3
(0000000000.899822) vcan0 1AC#814100006945FF13
(0000000000.900133) vcan0 2A0#0000000000003030
(0000000000.900418) vcan0 3A0#3EC10000F0FFFF0F
(0000000000.900636) vcan0 4A0#00000000CCFFCCFF
(0000000000.900899) vcan0 4A8#FF3F0100000010D1
(0000000000.901197) vcan0 5A0#FF000017A400502B
(0000000000.909179) vcan0 0AE#4140000000000100
(0000000000.909465) vcan0 1A0#004F0000FEFE00D4
(0000000000.909799) vcan0 2A0#0000000000004040
(0000000000.910051) vcan0 4A0#00000000CCFFCCFF
(0000000000.919317) vcan0 0AE#5150000000000100
(0000000000.919570) vcan0 1A0#004F0000FEFE00D5
(0000000000.919836) vcan0 1AC#824200006945FF13
(0000000000.920155) vcan0 2A0#0000000000005050
(0000000000.920361) vcan0 3A0#3DC20000F0FFFF0F
(0000000000.920624) vcan0 4A0#00000000CCFFCCFF
(0000000000.920799) vcan0 4A8#FF3F0100000020E1
(0000000000.921154) vcan0 5A0#FF000027A400502B
(0000000000.929177) vcan0 0AE#6160000000000100
(0000000000.929436) vcan0 1A0#004F0000FEFE00D6
(0000000000.929778) vcan0 2A0#0000000000006060
(0000000000.930013) vcan0 4A0#00000000CCFFCCFF
(0000000000.939322) vcan0 0AE#7170000000000100
(0000000000.939593) vcan0 1A0#004F0000FEFE00D7
(0000000000.939877) vcan0 1AC#834300006945FF13
(0000000000.940161) vcan0 2A0#0000000000007070
(0000000000.940344) vcan0 3A0#3CC30000F0FFFF0F
(0000000000.940632) vcan0 4A0#00000000CCFFCCFF
(0000000000.940819) vcan0 4A8#FF3F0100000030F1
(0000000000.941165) vcan0 5A0#FF000037A400502B
(0000000000.949197) vcan0 0AE#8180000000000100
(0000000000.949487) vcan0 1A0#004F0000FEFE00D8
(0000000000.949754) vcan0 2A0#0000000000008080
(0000000000.950060) vcan0 4A0#00000000CCFFCCFF
(0000000000.959350) vcan0 0AE#9190000000000100
(0000000000.959573) vcan0 1A0#004F0000FEFE00D9
(0000000000.959826) vcan0 1AC#844400006945FF13
(0000000000.960149) vcan0 2A0#0000000000009090
(0000000000.960354) vcan0 3A0#3BC40000F0FFFF0F
(0000000000.960624) vcan0 4A0#00000000CCFFCCFF
(0000000000.960818) vcan0 4A8#FF3F010000004081
(0000000000.961149) vcan0 5A0#FF000047A400502B
(0000000000.969154) vcan0 0AE#A1A0000000000100
(0000000000.969446) vcan0 1A0#004F0000FEFE00DA
(0000000000.969776) vcan0 2A0#000000000000A0A0
(0000000000.970039) vcan0 4A0#00000000CCFFCCFF
(0000000000.979328) vcan0 0AE#B1B0000000000100
(0000000000.979595) vcan0 1A0#004F0000FEFE00DB
(0000000000.979802) vcan0 1AC#854500006945FF13
(0000000000.980138) vcan0 2A0#000000000000B0B0
(0000000000.980318) vcan0 3A0#3AC50000F0FFFF0F
(0000000000.980632) vcan0 4A0#00000000CCFFCCFF
(0000000000.980823) vcan0 4A8#FF3F010000005091
(0000000000.981135) vcan0 5A0#FF000057A400502B
(0000000000.981346) vcan0 723#04030000020000
(0000000000.989116) vcan0 0AE#C1C0000000000100
(0000000000.989405) vcan0 1A0#004F0000FEFE00DC
(0000000000.989747) vcan0 2A0#000000000000C0C0
(0000000000.990014) vcan0 4A0#00000000CCFFCCFF
(0000000000.999237) vcan0 0AE#D1D0000000000100
(0000000000.999532) vcan0 1A0#004F0000FEFE00DD
(0000000000.999827) vcan0 1AC#864600006945FF13
(0000000001.000100) vcan0 2A0#000000000000D0D0
(0000000001.000284) vcan0 3A0#39C60000F0FFFF0F
(0000000001.000549) vcan0 4A0#00000000CCFFCCFF
(0000000001.000785) vcan0 4A8#FF3F0100000060A1
(0000000001.001087) vcan0 5A0#FF000067A400502B
(0000000001.009281) vcan0 0AE#E1E0000000000100
(0000000001.009397) vcan0 1A0#004F0000FEFE00DE
(0000000001.009913) vcan0 2A0#000000000000E0E0
(0000000001.010019) vcan0 4A0#00000000CCFFCCFF
(0000000001.019472) vcan0 0AE#F1F0000000000100
(0000000001.019569) vcan0 1A0#004F0000FEFE00DF
(0000000001.020012) vcan0 1AC#874700006945FF13
(0000000001.020145) vcan0 2A0#000000000000F0F0
(0000000001.020376) vcan0 3A0#38C70000F0FFFF0F
(0000000001.020652) vcan0 4A0#00000000CCFFCCFF
(0000000001.020778) vcan0 4A8#FF3F0100000070B1
(0000000001.021284) vcan0 5A0#FF000077A400502B
(0000000001.029323) vcan0 0AE#0100000000000100
(0000000001.029454) vcan0 1A0#004F0000FEFE00D0
(0000000001.029946) vcan0 2A0#0000000000000000
(0000000001.029950) vcan0 4A0#00000000CCFFCCFF
(0000000001.039282) vcan0 0AE#1110000000000100
(0000000001.039713) vcan0 1A0#004F0000FEFE00D1
(0000000001.039778) vcan0 1AC#884800006945FF13
(0000000001.040287) vcan0 2A0#0000000000001010
(0000000001.040291) vcan0 3A0#37C80000F0FFFF0F
(0000000001.040714) vcan0 4A0#00000000CCFFCCFF
(0000000001.040791) vcan0 4A8#FF3F010000008041
(0000000001.041268) vcan0 5A0#FF000087A400502B
(0000000001.049184) vcan0 0AE#2120000000000100
(0000000001.049517) vcan0 1A0#004F0000FEFE00D2
(0000000001.049869) vcan0 2A0#0000000000002020
(0000000001.050018) vcan0 4A0#00000000CCFFCCFF
(0000000001.059418) vcan0 0AE#3130000000000100
(0000000001.059580) vcan0 1A0#00480000FEFE00D3
(0000000001.059793) vcan0 1AC#894900006945FF13
(0000000001.060227) vcan0 2A0#0000000000003030
(0000000001.060401) vcan0 3A0#36C90000F0FFFF0F
(0000000001.060618) vcan0 4A0#00000000CCFFCCFF
(0000000001.060910) vcan0 4A8#FF3F010000009051
(0000000001.061237) vcan0 5A0#FF000094A400502B
(0000000001.069216) vcan0 0AE#4140000000000100
(0000000001.069501) vcan0 1A0#00480000FEFE00D4
(0000000001.069832) vcan0 2A0#0000000000004040
(0000000001.070024) vcan0 4A0#00000000CCFFCCFF
(0000000001.079392) vcan0 0AE#5150000000000100
(0000000001.079608) vcan0 1A0#00480000FEFE00D5
(0000000001.079837) vcan0 1AC#8A4A00006945FF13
(0000000001.080210) vcan0 2A0#0000000000005050
(0000000001.080367) vcan0 3A0#35CA0000F0FFFF0F
(0000000001.080609) vcan0 4A0#00000000CCFFCCFF
(0000000001.080867) vcan0 4A8#FF3F01000000A061
(0000000001.081084) vcan0 5A0#FF0000A4A400502B
(0000000001.081337) vcan0 723#04030000020000
(0000000001.089212) vcan0 0AE#6160000000000100
(0000000001.089490) vcan0 1A0#00480000FEFE00D6
(0000000001.089812) vcan0 2A0#0000000000006060
(0000000001.090008) vcan0 4A0#00000000CCFFCCFF
(0000000001.099372) vcan0 0AE#7170000000000100
(0000000001.099629) vcan0 1A0#00480000FEFE00D7
(0000000001.099819) vcan0 1AC#8B4B00006945FF13
(0000000001.100229) vcan0 2A0#0000000000007070
(0000000001.100315) vcan0 3A0#34CB0000F0FFFF0F
(0000000001.100656) vcan0 4A0#00000000CCFFCCFF
(0000000001.100819) vcan0 4A8#FF3F01000000B071
(0000000001.101218) vcan0 5A0#FF0000B4A400502B
(0000000001.109212) vcan0 0AE#8180000000000100
(0000000001.109474) vcan0 1A0#00480000FEFE00D8
(0000000001.109829) vcan0 2A0#0000000000008080
(0000000001.110017) vcan0 4A0#00000000CCFFCCFF
(0000000001.119368) vcan0 0AE#9190000000000100
(0000000001.119632) vcan0 1A0#00480000FEFE00D9
(0000000001.119896) vcan0 1AC#8C4C00006945FF13
(0000000001.120209) vcan0 2A0#0000000000009090
(0000000001.120344) vcan0 3A0#33CC0000F0FFFF0F
(0000000001.120670) vcan0 4A0#00000000CCFFCCFF
(0000000001.120773) vcan0 4A8#FF3F01000000C001
(0000000001.121212) vcan0 5A0#FF0000C4A400502B
(0000000001.129163) vcan0 0AE#A1A0000000000100
(0000000001.129482) vcan0 1A0#00480000FEFE00DA
(0000000001.129827) vcan0 2A0#000000000000A0A0
(0000000001.130082) vcan0 4A0#00000000CCFFCCFF
(0000000001.139331) vcan0 0AE#B1B0000000000100
(0000000001.139508) vcan0 1A0#00480000FEFE00DB
(0000000001.139823) vcan0 1AC#8D4D00006945FF13
(0000000001.140195) vcan0 2A0#000000000000B0B0
(0000000001.140333) vcan0 3A0#32CD0000F0FFFF0F
(0000000001.140589) vcan0 4A0#00000000CCFFCCFF
(0000000001.140869) vcan0 4A8#FF3F01000000D011
(0000000001.141118) vcan0 5A0#FF0000D4A400502B
(0000000001.149161) vcan0 0AE#C1C0000000000100
(0000000001.149417) vcan0 1A0#00480000FEFE00DC
(0000000001.149735) vcan0 2A0#000000000000C0C0
(0000000001.150041) vcan0 4A0#00000000CCFFCCFF
(0000000001.159261) vcan0 0AE#D1D0000000000100
(0000000001.159579) vcan0 1A0#00480000FEFE00DD
(0000000001.159844) vcan0 1AC#8E4E00006945FF13
(0000000001.160113) vcan0 2A0#000000000000D0D0
(0000000001.160325) vcan0 3A0#31CE0000F0FFFF0F
(0000000001.160606) vcan0 4A0#00000000CCFFCCFF
(0000000001.160869) vcan0 4A8#FF3F01000000E021
(0000000001.161077) vcan0 5A0#FF0000E4A400502B
(0000000001.169235) vcan0 0AE#E1E0000000000100
(0000000001.169401) vcan0 1A0#00480000FEFE00DE
(0000000001.169832) vcan0 2A0#000000000000E0E0
(0000000001.170043) vcan0 4A0#00000000CCFFCCFF
(0000000001.179423) vcan0 0AE#F1F0000000000100
(0000000001.179584) vcan0 1A0#00480000FEFE00DF
(0000000001.179982) vcan0 1AC#8F4F00006945FF13
(0000000001.180175) vcan0 2A0#000000000000F0F0
(0000000001.180498) vcan0 3A0#30CF0000F0FFFF0F
(0000000001.180650) vcan0 4A0#00000000CCFFCCFF
(0000000001.180882) vcan0 4A8#FF3F01000000F031
(0000000001.181075) vcan0 5A0#FF0000F4A400502B
(0000000001.181464) vcan0 723#04030000020000
(0000000001.189122) vcan0 0AE#0100000000000100
(0000000001.189542) vcan0 1A0#00480000FEFE00D0
(0000000001.189857) vcan0 2A0#0000000000000000
(0000000001.190039) vcan0 4A0#00000000CCFFCCFF
(0000000001.199279) vcan0 0AE#1110000000000100
(0000000001.199619) vcan0 1A0#00480000FEFE00D1
(0000000001.199912) vcan0 1AC#804000006945FF13
(0000000001.200222) vcan0 2A0#0000000000001010
(0000000001.200329) vcan0 3A0#3FC00000F0FFFF0F
(0000000001.200660) vcan0 4A0#00000000CCFFCCFF
(0000000001.200795) vcan0 4A8#FF3F0100000000C1
(0000000001.201216) vcan0 5A0#FF000004A400502B
(0000000001.209194) vcan0 0AE#2120000000000100
(0000000001.209483) vcan0 1A0#00480000FEFE00D2
(0000000001.209805) vcan0 2A0#0000000000002020
(0000000001.210077) vcan0 4A0#00000000CCFFCCFF
(0000000001.219326) vcan0 0AE#3130000000000100
(0000000001.219615) vcan0 1A0#00480000FEFE00D3
(0000000001.219910) vcan0 1AC#814100006945FF13
(0000000001.220188) vcan0 2A0#0000000000003030
(0000000001.220388) vcan0 3A0#3EC10000F0FFFF0F
(0000000001.220663) vcan0 4A0#00000000CCFFCCFF
(0000000001.220904) vcan0 4A8#FF3F0100000010D1
(0000000001.221207) vcan0 5A0#FF000014A400502B
(0000000001.229132) vcan0 0AE#4140000000000100
(0000000001.229411) vcan0 1A0#00480000FEFE00D4
(0000000001.229767) vcan0 2A0#0000000000004040
(0000000001.230087) vcan0 4A0#00000000CCFFCCFF
(0000000001.239330) vcan0 0AE#5150000000000100
(0000000001.239585) vcan0 1A0#00480000FEFE00D5
(0000000001.239822) vcan0 1AC#824200006945FF13
(0000000001.240160) vcan0 2A0#0000000000005050
(0000000001.240407) vcan0 3A0#3DC20000F0FFFF0F
(0000000001.240606) vcan0 4A0#00000000CCFFCCFF
(0000000001.240888) vcan0 4A8#FF3F0100000020E1
(0000000001.241162) vcan0 5A0#FF000024A400502B
(0000000001.249171) vcan0 0AE#6160000000000100
(0000000001.249428) vcan0 1A0#00480000FEFE00D6
(0000000001.249735) vcan0 2A0#0000000000006060
(0000000001.250031) vcan0 4A0#00000000CCFFCCFF
(0000000001.259372) vcan0 0AE#7170000000000100
(0000000001.259602) vcan0 1A0#00480000FEFE00D7
(0000000001.259943) vcan0 1AC#834300006945FF13
(0000000001.260184) vcan0 2A0#0000000000007070
(0000000001.260394) vcan0 3A0#3CC30000F0FFFF0F
(0000000001.260576) vcan0 4A0#00000000CCFFCCFF
(0000000001.260897) vcan0 4A8#FF3F0100000030F1
(0000000001.261208) vcan0 5A0#FF000034A400502B
(0000000001.269169) vcan0 0AE#8180000000000100
(0000000001.269431) vcan0 1A0#00480000FEFE00D8
(0000000001.269772) vcan0 2A0#0000000000008080
(0000000001.270013) vcan0 4A0#00000000CCFFCCFF
(0000000001.279280) vcan0 0AE#9190000000000100
(0000000001.279579) vcan0 1A0#00480000FEFE00D9
(0000000001.279831) vcan0 1AC#844400006945FF13
(0000000001.280104) vcan0 2A0#0000000000009090
(0000000001.280367) vcan0 3A0#3BC40000F0FFFF0F
(0000000001.280633) vcan0 4A0#00000000CCFFCCFF
(0000000001.280848) vcan0 4A8#FF3F030000004083
(0000000001.281156) vcan0 5A0#FF000044A400502B
(0000000001.281363) vcan0 723#04030000020000
(0000000001.289209) vcan0 0AE#A1A0000000000100
(0000000001.289536) vcan0 1A0#00480000FEFE00DA
(0000000001.289825) vcan0 2A0#000000000000A0A0
(0000000001.290092) vcan0 4A0#00000000CCFFCCFF
(0000000001.299479) vcan0 0AE#B1B0000000000100
(0000000001.299597) vcan0 1A0#00480000FEFE00DB
(0000000001.299921) vcan0 1AC#854500006945FF13
(0000000001.300200) vcan0 2A0#000000000000B0B0
(0000000001.300368) vcan0 3A0#3AC50000F0FFFF0F
(0000000001.300661) vcan0 4A0#00000000CCFFCCFF
(0000000001.300902) vcan0 4A8#FF3F010000005091
(0000000001.301154) vcan0 5A0#FF000054A400502B
(0000000001.309213) vcan0 0AE#C1C0000000000100
(0000000001.309475) vcan0 1A0#00480000FEFE00DC
(0000000001.309813) vcan0 2A0#000000000000C0C0
(0000000001.310085) vcan0 4A0#00000000CCFFCCFF
(0000000001.319379) vcan0 0AE#D1D0000000000100
(0000000001.319592) vcan0 1A0#00480000FEFE00DD
(0000000001.319825) vcan0 1AC#864600006945FF13
(0000000001.320210) vcan0 2A0#000000000000D0D0
(0000000001.320366) vcan0 3A0#39C60000F0FFFF0F
(0000000001.320652) vcan0 4A0#00000000CCFFCCFF
(0000000001.320781) vcan0 4A8#FF3F0100000060A1
(0000000001.321316) vcan0 5A0#FF000064A400502B
(0000000001.329207) vcan0 0AE#E1E0000000000100
(0000000001.329472) vcan0 1A0#00480000FEFE00DE
(0000000001.329832) vcan0 2A0#000000000000E0E0
(0000000001.330126) vcan0 4A0#00000000CCFFCCFF
(0000000001.339358) vcan0 0AE#F1F0000000000100
(0000000001.339621) vcan0 1A0#00480000FEFE00DF
(0000000001.339927) vcan0 1AC#874700006945FF13
(0000000001.340205) vcan0 2A0#000000000000F0F0
(0000000001.340401) vcan0 3A0#38C70000F0FFFF0F
(0000000001.340661) vcan0 4A0#00000000CCFFCCFF
(0000000001.340795) vcan0 4A8#FF3F0100000070B1
(0000000001.341195) vcan0 5A0#FF000074A400502B
(0000000001.349181) vcan0 0AE#0100000000000100
(0000000001.349437) vcan0 1A0#00480000FEFE00D0
(0000000001.349749) vcan0 2A0#0000000000000000
(0000000001.349946) vcan0 4A0#00000000CCFFCCFF
(0000000001.359356) vcan0 0AE#1110000000000100
(0000000001.359564) vcan0 1A0#00480000FEFE00D1
(0000000001.359864) vcan0 1AC#884800006945FF13
(0000000001.360159) vcan0 2A0#0000000000001010
(0000000001.360340) vcan0 3A0#37C80000F0FFFF0F
(0000000001.360593) vcan0 4A0#00000000CCFFCCFF
(0000000001.360802) vcan0 4A8#FF3F010000008041
(0000000001.361141) vcan0 5A0#FF000084A400502B
(0000000001.369159) vcan0 0AE#2120000000000100
(0000000001.369422) vcan0 1A0#00480000FEFE00D2
(0000000001.369768) vcan0 2A0#0000000000002020
(0000000001.370000) vcan0 4A0#00000000CCFFCCFF
(0000000001.379255) vcan0 0AE#3130000000000100
(0000000001.379523) vcan0 1A0#00480000FEFE00D3
(0000000001.379841) vcan0 1AC#894900006945FF13
(0000000001.380130) vcan0 2A0#0000000000003030
(0000000001.380295) vcan0 3A0#36C90000F0FFFF0F
(0000000001.380558) vcan0 4A0#00000000CCFFCCFF
(0000000001.380804) vcan0 4A8#FF3F010000009051
(0000000001.381087) vcan0 5A0#FF000094A400502B
(0000000001.381316) vcan0 723#04030000020000
(0000000001.389124) vcan0 0AE#4140000000000100
(0000000001.389415) vcan0 1A0#00480000FEFE00D4
(0000000001.389764) vcan0 2A0#0000000000004040
(0000000001.390021) vcan0 4A0#00000000CCFFCCFF
(0000000001.399293) vcan0 0AE#5150000000000100
(0000000001.399558) vcan0 1A0#00480000FEFE00D5
(0000000001.399755) vcan0 1AC#8A4A00006945FF13
(0000000001.400160) vcan0 2A0#0000000000005050
(0000000001.400346) vcan0 3A0#35CA0000F0FFFF0F
(0000000001.400590) vcan0 4A0#00000000CCFFCCFF
(0000000001.400802) vcan0 4A8#FF3F01000000A061
(0000000001.401198) vcan0 5A0#FF0000A4A400502B
(0000000001.409120) vcan0 0AE#6160000000000100
(0000000001.409416) vcan0 1A0#00480000FEFE00D6
(0000000001.409905) vcan0 2A0#0000000000006060
(0000000001.410039) vcan0 4A0#00000000CCFFCCFF
(0000000001.419427) vcan0 0AE#7170000000000100
(0000000001.419534) vcan0 1A0#00480000FEFE00D7
(0000000001.419934) vcan0 1AC#8B4B00006945FF13
(0000000001.420240) vcan0 2A0#0000000000007070
(0000000001.420330) vcan0 3A0#34CB0000F0FFFF0F
(0000000001.420580) vcan0 4A0#00000000CCFFCCFF
(0000000001.420931) vcan0 4A8#FF3F01000000B071
(0000000001.421043) vcan0 5A0#FF0000B4A400502B
(0000000001.429302) vcan0 0AE#8180000000000100
(0000000001.429417) vcan0 1A0#00480000FEFE00D8
(0000000001.429893) vcan0 2A0#0000000000008080
(0000000001.429935) vcan0 4A0#00000000CCFFCCFF
(0000000001.439380) vcan0 0AE#9190000000000100
(0000000001.439552) vcan0 1A0#00480000FEFE00D9
(0000000001.439839) vcan0 1AC#8C4C00006945FF13
(0000000001.440157) vcan0 2A0#0000000000009090
(0000000001.440339) vcan0 3A0#33CC0000F0FFFF0F
(0000000001.440579) vcan0 4A0#00000000CCFFCCFF
(0000000001.440909) vcan0 4A8#FF3F01000000C001
(0000000001.441081) vcan0 5A0#FF0000C4A400502B
(0000000001.449213) vcan0 0AE#A1A0000000000100
(0000000001.449491) vcan0 1A0#00480000FEFE00DA
(0000000001.449837) vcan0 2A0#000000000000A0A0
(0000000001.450004) vcan0 4A0#00000000CCFFCCFF
(0000000001.459370) vcan0 0AE#B1B0000000000100
(0000000001.459553) vcan0 1A0#00480000FEFE00DB
(0000000001.459815) vcan0 1AC#8D4D00006945FF13
(0000000001.460096) vcan0 2A0#000000000000B0B0
(0000000001.460323) vcan0 3A0#32CD0000F0FFFF0F
(0000000001.460515) vcan0 4A0#00000000CCFFCCFF
(0000000001.460835) vcan0 4A8#FF3F01000000D011
(0000000001.461054) vcan0 5A0#FF0000D4A400502B
(0000000001.469149) vcan0 0AE#C1C0000000000100
(0000000001.469413) vcan0 1A0#00480000FEFE00DC
(0000000001.469723) vcan0 2A0#000000000000C0C0
(0000000001.469988) vcan0 4A0#00000000CCFFCCFF
(0000000001.479283) vcan0 0AE#D1D0000000000100
(0000000001.479544) vcan0 1A0#00480000FEFE00DD
(0000000001.479838) vcan0 1AC#8E4E00006945FF13
(0000000001.480069) vcan0 2A0#000000000000D0D0
(0000000001.480323) vcan0 3A0#31CE0000F0FFFF0F
(0000000001.480568) vcan0 4A0#00000000CCFFCCFF
(0000000001.480775) vcan0 4A8#FF3F01000000E021
(0000000001.481068) vcan0 5A0#FF0000E4A400502B
(0000000001.481311) vcan0 723#04030000020000
(0000000001.489147) vcan0 0AE#E1E0000000000100
(0000000001.489410) vcan0 1A0#00480000FEFE00DE
(0000000001.489750) vcan0 2A0#000000000000E0E0
(0000000001.489988) vcan0 4A0#00000000CCFFCCFF
(0000000001.499259) vcan0 0AE#F1F0000000000100
(0000000001.499524) vcan0 1A0#00480000FEFE00DF
(0000000001.499789) vcan0 1AC#8F4F00006945FF13
(0000000001.500049) vcan0 2A0#000000000000F0F0
(0000000001.500328) vcan0 3A0#30CF0000F0FFFF0F
(0000000001.500547) vcan0 4A0#00000000CCFFCCFF
(0000000001.500804) vcan0 4A8#FF3F01000000F031
(0000000001.501041) vcan0 5A0#FF0000F4A400502B
(0000000001.509127) vcan0 0AE#0100000000000100
(0000000001.509388) vcan0 1A0#00480000FEFE00D0
(0000000001.509705) vcan0 2A0#0000000000000000
(0000000001.509968) vcan0 4A0#00000000CCFFCCFF
(0000000001.519529) vcan0 0AE#1110000000000100
(0000000001.519537) vcan0 1A0#00480000FEFE00D1
(0000000001.519888) vcan0 1AC#804000006945FF13
(0000000001.520210) vcan0 2A0#0000000000001010
(0000000001.520349) vcan0 3A0#3FC00000F0FFFF0F
(0000000001.520732) vcan0 4A0#00000000CCFFCCFF
(0000000001.520767) vcan0 4A8#FF3F0100000000C1
(0000000001.521296) vcan0 5A0#FF000004A400502B
(0000000001.529266) vcan0 0AE#2120000000000100
(0000000001.529401) vcan0 1A0#00480000FEFE00D2
(0000000001.529882) vcan0 2A0#0000000000002020
(0000000001.529980) vcan0 4A0#00000000CCFFCCFF
(0000000001.539344) vcan0 0AE#3130000000000100
(0000000001.539547) vcan0 1A0#00480000FEFE00D3
(0000000001.539842) vcan0 1AC#814100006945FF13
(0000000001.540304) vcan0 2A0#0000000000003030
(0000000001.540307) vcan0 3A0#3EC10000F0FFFF0F
(0000000001.540713) vcan0 4A0#00000000CCFFCCFF
(0000000001.540769) vcan0 4A8#FF3F0100000010D1
(0000000001.541188) vcan0 5A0#FF000014A400502B
(0000000001.549273) vcan0 0AE#4140000000000100
(0000000001.549347) vcan0 1A0#00480000FEFE00D4
(0000000001.549904) vcan0 2A0#0000000000004040
(0000000001.550044) vcan0 4A0#00000000CCFFCCFF
(0000000001.559402) vcan0 0AE#5150000000000100
(0000000001.559522) vcan0 1A0#004F0000FEFE00D5
(0000000001.559942) vcan0 1AC#824200006945FF13
(0000000001.560141) vcan0 2A0#0000000000005050
(0000000001.560398) vcan0 3A0#3DC20000F0FFFF0F
(0000000001.560639) vcan0 4A0#00000000CCFFCCFF
(0000000001.560882) vcan0 4A8#FF3F0100000020E1
(0000000001.561248) vcan0 5A0#FF000027A400502B
(0000000001.569236) vcan0 0AE#6160000000000100
(0000000001.569455) vcan0 1A0#004F0000FEFE00D6
(0000000001.569838) vcan0 2A0#0000000000006060
(0000000001.570014) vcan0 4A0#00000000CCFFCCFF
(0000000001.579318) vcan0 0AE#7170000000000100
(0000000001.579532) vcan0 1A0#004F0000FEFE00D7
(0000000001.579806) vcan0 1AC#834300006945FF13
(0000000001.580192) vcan0 2A0#0000000000007070
(0000000001.580397) vcan0 3A0#3CC30000F0FFFF0F
(0000000001.580654) vcan0 4A0#00000000CCFFCCFF
(0000000001.581014) vcan0 4A8#FF3F0100000030F1
(0000000001.581134) vcan0 5A0#FF000037A400502B
(0000000001.581398) vcan0 723#04030000020000
(0000000001.589205) vcan0 0AE#8180000000000100
(0000000001.589446) vcan0 1A0#004F0000FEFE00D8
(0000000001.589810) vcan0 2A0#0000000000008080
(0000000001.590050) vcan0 4A0#00000000CCFFCCFF
(0000000001.599350) vcan0 0AE#9190000000000100
(0000000001.599509) vcan0 1A0#004F0000FEFE00D9
(0000000001.599856) vcan0 1AC#844400006945FF13
(0000000001.600177) vcan0 2A0#0000000000009090
(0000000001.600351) vcan0 3A0#3BC40000F0FFFF0F
(0000000001.600580) vcan0 4A0#00000000CCFFCCFF
(0000000001.600906) vcan0 4A8#FF3F010000004081
(0000000001.601179) vcan0 5A0#FF000047A400502B
(0000000001.609175) vcan0 0AE#A1A0000000000100
(0000000001.609406) vcan0 1A0#004F0000FEFE00DA
(0000000001.609799) vcan0 2A0#000000000000A0A0
(0000000001.610014) vcan0 4A0#00000000CCFFCCFF
(0000000001.619319) vcan0 0AE#B1B0000000000100
(0000000001.619574) vcan0 1A0#004F0000FEFE00DB
(0000000001.619870) vcan0 1AC#854500006945FF13
(0000000001.620181) vcan0 2A0#000000000000B0B0
(0000000001.620405) vcan0 3A0#3AC50000F0FFFF0F
(0000000001.620659) vcan0 4A0#00000000CCFFCCFF
(0000000001.620841) vcan0 4A8#FF3F010000005091
(0000000001.621178) vcan0 5A0#FF000057A400502B
(0000000001.629161) vcan0 0AE#C1C0000000000100
(0000000001.629382) vcan0 1A0#004F0000FEFE00DC
(0000000001.629753) vcan0 2A0#000000000000C0C0
(0000000001.629944) vcan0 4A0#00000000CCFFCCFF
(0000000001.639272) vcan0 0AE#D1D0000000000100
(0000000001.639530) vcan0 1A0#004F0000FEFE00DD
(0000000001.639814) vcan0 1AC#864600006945FF13
(0000000001.640133) vcan0 2A0#000000000000D0D0
(0000000001.640353) vcan0 3A0#39C60000F0FFFF0F
(0000000001.640584) vcan0 4A0#00000000CCFFCCFF
(0000000001.640842) vcan0 4A8#FF3F0100000060A1
(0000000001.641130) vcan0 5A0#FF000067A400502B
(0000000001.649259) vcan0 0AE#E1E0000000000100
(0000000001.649416) vcan0 1A0#004F0000FEFE00DE
(0000000001.649839) vcan0 2A0#000000000000E0E0
(0000000001.649963) vcan0 4A0#00000000CCFFCCFF
(0000000001.659408) vcan0 0AE#F1F0000000000100
(0000000001.659566) vcan0 1A0#004F0000FEFE00DF
(0000000001.659869) vcan0 1AC#874700006945FF13
(0000000001.660254) vcan0 2A0#000000000000F0F0
(0000000001.660363) vcan0 3A0#38C70000F0FFFF0F
(0000000001.660672) vcan0 4A0#00000000CCFFCCFF
(0000000001.660748) vcan0 4A8#FF3F0100000070B1
(0000000001.661285) vcan0 5A0#FF000077A400502B
(0000000001.669281) vcan0 0AE#0100000000000100
(0000000001.669368) vcan0 1A0#004F0000FEFE00D0
(0000000001.669837) vcan0 2A0#0000000000000000
(0000000001.669993) vcan0 4A0#00000000CCFFCCFF
(0000000001.679411) vcan0 0AE#1110000000000100
(0000000001.679570) vcan0 1A0#004F0000FEFE00D1
(0000000001.679813) vcan0 1AC#884800006945FF13
(0000000001.680269) vcan0 2A0#0000000000001010
(0000000001.680393) vcan0 3A0#37C80000F0FFFF0F
(0000000001.680631) vcan0 4A0#00000000CCFFCCFF
(0000000001.680864) vcan0 4A8#FF3F010000008041
(0000000001.681268) vcan0 5A0#FF000087A400502B
(0000000001.681361) vcan0 723#04030000020000
(0000000001.689246) vcan0 0AE#2120000000000100
(0000000001.689404) vcan0 1A0#004F0000FEFE00D2
(0000000001.689748) vcan0 2A0#0000000000002020
(0000000001.690089) vcan0 4A0#00000000CCFFCCFF
(0000000001.699322) vcan0 0AE#3130000000000100
(0000000001.699565) vcan0 1A0#004F0000FEFE00D3
(0000000001.699843) vcan0 1AC#894900006945FF13
(0000000001.700184) vcan0 2A0#0000000000003030
(0000000001.700279) vcan0 3A0#36C90000F0FFFF0F
(0000000001.700591) vcan0 4A0#00000000CCFFCCFF
(0000000001.700795) vcan0 4A8#FF3F010000009051
(0000000001.701093) vcan0 5A0#FF000097A400502B
(0000000001.709087) vcan0 0AE#4140000000000100
(0000000001.709448) vcan0 1A0#004F0000FEFE00D4
(0000000001.709815) vcan0 2A0#0000000000004040
(0000000001.710010) vcan0 4A0#00000000CCFFCCFF
(0000000001.719366) vcan0 0AE#5150000000000100
(0000000001.719609) vcan0 1A0#004F0000FEFE00D5
(0000000001.719839) vcan0 1AC#8A4A00006945FF13
(0000000001.720229) vcan0 2A0#0000000000005050
(0000000001.720385) vcan0 3A0#35CA0000F0FFFF0F
(0000000001.720635) vcan0 4A0#00000000CCFFCCFF
(0000000001.720767) vcan0 4A8#FF3F01000000A061
(0000000001.721185) vcan0 5A0#FF0000A7A400502B
(0000000001.729112) vcan0 0AE#6160000000000100
(0000000001.729465) vcan0 1A0#004F0000FEFE00D6
(0000000001.729770) vcan0 2A0#0000000000006060
