(0000000044.943382) vcan0 723#01030000020000
(0000000044.953498) vcan0 0AE#0100000000000100
(0000000044.953705) vcan0 1A0#004B0000FEFE00D0
(0000000044.953925) vcan0 2A0#0000000100000001
(0000000044.954216) vcan0 4A0#0000000000000000
(0000000044.963655) vcan0 0AE#1110000000000100
(0000000044.963873) vcan0 1A0#004B0000FEFE00D1
(0000000044.964202) vcan0 1AC#C00000006945FF13
(0000000044.964469) vcan0 2A0#0000000100001011
(0000000044.964722) vcan0 3A0#AAF0FDF7DF7FFF0F
(0000000044.964938) vcan0 4A0#0000000000000000
(0000000044.965194) vcan0 4A8#FF3F008000000040
(0000000044.965501) vcan0 5A0#2B01000F0000502B
(0000000044.973645) vcan0 0AE#2120000000000100
(0000000044.973724) vcan0 1A0#004B0000FEFE00D2
(0000000044.974002) vcan0 2A0#0000000100002021
(0000000044.974215) vcan0 4A0#0000000000000000
(0000000044.983640) vcan0 0AE#3130000000000100
(0000000044.983925) vcan0 1A0#004B0000FEFE00D3
(0000000044.984221) vcan0 1AC#C10100006945FF13
(0000000044.984466) vcan0 2A0#0000000100003031
(0000000044.984701) vcan0 3A0#3EC10000F0FFFF0F
(0000000044.984965) vcan0 4A0#00000000CCFFCCFF
(0000000044.985229) vcan0 4A8#FF3F008000001050
(0000000044.985463) vcan0 5A0#2B01001F0000502B
(0000000044.993489) vcan0 0AE#4140000000000100
(0000000044.993664) vcan0 1A0#004B0000FEFE00D4
(0000000044.993915) vcan0 2A0#0000000100004041
(0000000044.994143) vcan0 4A0#00000000CCFFCCFF
(0000000045.003727) vcan0 0AE#5150000000000100
(0000000045.003940) vcan0 1A0#004B0000FEFE00D5
(0000000045.004180) vcan0 1AC#C20200006945FF13
(0000000045.004430) vcan0 2A0#0000000100005051
(0000000045.004640) vcan0 3A0#3DC20000F0FFFF0F
(0000000045.004907) vcan0 4A0#00000000CCFFCCFF
(0000000045.005166) vcan0 4A8#FF3F008000002060
(0000000045.005456) vcan0 5A0#2B01002F0000502B
(0000000045.013526) vcan0 0AE#6160000000000100
(0000000045.013682) vcan0 1A0#004B0000FEFE00D6
(0000000045.013942) vcan0 2A0#0000000100006061
(0000000045.014173) vcan0 4A0#00000000CCFFCCFF
(0000000045.023727) vcan0 0AE#7170000000000100
(0000000045.023998) vcan0 1A0#004B0000FEFE00D7
(0000000045.024193) vcan0 1AC#C30300006945FF13
(0000000045.024439) vcan0 2A0#0000000100007071
(0000000045.024648) vcan0 3A0#3CC30000F0FFFF0F
(0000000045.024950) vcan0 4A0#00000000CCFFCCFF
(0000000045.025179) vcan0 4A8#FF3F0100000030F1
(0000000045.025471) vcan0 5A0#2B01003F0000502B
(0000000045.033551) vcan0 0AE#8180000000000100
(0000000045.033732) vcan0 1A0#004B0000FEFE00D8
(0000000045.033975) vcan0 2A0#0000000100008081
(0000000045.034199) vcan0 4A0#00000000CCFFCCFF
(0000000045.043730) vcan0 0AE#9190000000000100
(0000000045.043881) vcan0 1A0#004B0000FEFE00D9
(0000000045.044240) vcan0 1AC#C40400006945FF13
(0000000045.044438) vcan0 2A0#0000000100009091
(0000000045.044640) vcan0 3A0#3BC40000F0FFFF0F
(0000000045.044905) vcan0 4A0#00000000CCFFCCFF
(0000000045.045141) vcan0 4A8#FF3F010000004081
(0000000045.045442) vcan0 5A0#2B01004F0000502B
(0000000045.045626) vcan0 723#01030000020000
(0000000045.053403) vcan0 0AE#A1A0000000000100
(0000000045.053679) vcan0 1A0#004B0000FEFE00DA
(0000000045.053975) vcan0 2A0#000000010000A0A1
(0000000045.054207) vcan0 4A0#00000000CCFFCCFF
(0000000045.063717) vcan0 0AE#B1B0000000000100
(0000000045.063873) vcan0 1A0#004B0000FEFE00DB
(0000000045.064145) vcan0 1AC#C50500006945FF13
(0000000045.064370) vcan0 2A0#000000010000B0B1
(0000000045.064685) vcan0 3A0#3AC50000F0FFFF0F
(0000000045.064924) vcan0 4A0#00000000CCFFCCFF
(0000000045.065148) vcan0 4A8#FF3F008000005010
(0000000045.065369) vcan0 5A0#2B01005F0000502B
(0000000045.073465) vcan0 0AE#C1C0000000000100
(0000000045.073747) vcan0 1A0#004B0000FEFE00DC
(0000000045.073964) vcan0 2A0#000000010000C0C1
(0000000045.074253) vcan0 4A0#00000000CCFFCCFF
(0000000045.083695) vcan0 0AE#D1D0000000000100
(0000000045.083907) vcan0 1A0#004B0000FEFE00DD
(0000000045.084281) vcan0 1AC#C60600006945FF13
(0000000045.084517) vcan0 2A0#000000010000D0D1
(0000000045.084678) vcan0 3A0#39C60000F0FFFF0F
(0000000045.084909) vcan0 4A0#00000000CCFFCCFF
(0000000045.085201) vcan0 4A8#FF3F008000006020
(0000000045.085526) vcan0 5A0#2B01006F0000502B
(0000000045.093481) vcan0 0AE#E1E0000000000100
(0000000045.093820) vcan0 1A0#004B0000FEFE00DE
(0000000045.093961) vcan0 2A0#000000010000E0E1
(0000000045.094318) vcan0 4A0#00000000CCFFCCFF
(0000000045.103685) vcan0 0AE#F1F0000000000100
(0000000045.103844) vcan0 1A0#004B0000FEFE00DF
(0000000045.104239) vcan0 1AC#C70700006945FF13
(0000000045.104468) vcan0 2A0#000000010000F0F1
(0000000045.104691) vcan0 3A0#38C70000F0FFFF0F
(0000000045.104966) vcan0 4A0#00000000CCFFCCFF
(0000000045.105158) vcan0 4A8#FF3F008000007030
(0000000045.105490) vcan0 5A0#2B01007F0000502B
(0000000045.113482) vcan0 0AE#0100000000000100
(0000000045.113750) vcan0 1A0#004B0000FEFE00D0
(0000000045.114017) vcan0 2A0#0000000100000001
(0000000045.114222) vcan0 4A0#00000000CCFFCCFF
(0000000045.123672) vcan0 0AE#1110000000000100
(0000000045.123823) vcan0 1A0#004B0000FEFE00D1
(0000000045.124237) vcan0 1AC#C80800006945FF13
(0000000045.124493) vcan0 2A0#0000000100001011
(0000000045.124709) vcan0 3A0#37C80000F0FFFF0F
(0000000045.124966) vcan0 4A0#00000000CCFFCCFF
(0000000045.125163) vcan0 4A8#FF3F0080000080C0
(0000000045.125454) vcan0 5A0#2B01008F0000502B
(0000000045.133528) vcan0 0AE#2120000000000100
(0000000045.133757) vcan0 1A0#004B0000FEFE00D2
(0000000045.133976) vcan0 2A0#0000000100002021
(0000000045.134210) vcan0 4A0#00000000CCFFCCFF
(0000000045.143624) vcan0 0AE#3130000000000100
(0000000045.143822) vcan0 1A0#004B0000FEFE00D3
(0000000045.144163) vcan0 1AC#C90900006945FF13
(0000000045.144443) vcan0 2A0#0000000100003031
(0000000045.144657) vcan0 3A0#36C90000F0FFFF0F
(0000000045.144895) vcan0 4A0#00000000CCFFCCFF
(0000000045.145196) vcan0 4A8#FF3F0080000090D0
(0000000045.145444) vcan0 5A0#2B01009F0000502B
(0000000045.145627) vcan0 723#01030000020000
(0000000045.153481) vcan0 0AE#4140000000000100
(0000000045.153748) vcan0 1A0#004B0000FEFE00D4
(0000000045.153982) vcan0 2A0#0000000100004041
(0000000045.154255) vcan0 4A0#00000000CCFFCCFF
(0000000045.163591) vcan0 0AE#5150000000000100
(0000000045.163894) vcan0 1A0#004B0000FEFE00D5
(0000000045.164167) vcan0 1AC#CA0A00006945FF13
(0000000045.164534) vcan0 2A0#0000000100005051
(0000000045.164656) vcan0 3A0#35CA0000F0FFFF0F
(0000000045.164895) vcan0 4A0#00000000CCFFCCFF
(0000000045.165157) vcan0 4A8#FF3F00800000A0E0
(0000000045.165444) vcan0 5A0#2B0100AF0000502B
(0000000045.173548) vcan0 0AE#6160000000000100
(0000000045.173701) vcan0 1A0#004B0000FEFE00D6
(0000000045.174008) vcan0 2A0#0000000100006061
(0000000045.174279) vcan0 4A0#00000000CCFFCCFF
(0000000045.183812) vcan0 0AE#7170000000000100
(0000000045.183899) vcan0 1A0#004B0000FEFE00D7
(0000000045.184210) vcan0 1AC#CB0B00006945FF13
(0000000045.184504) vcan0 2A0#0000000100007071
(0000000045.184676) vcan0 3A0#34CB0000F0FFFF0F
(0000000045.184982) vcan0 4A0#00000000CCFFCCFF
(0000000045.185179) vcan0 4A8#FF3F00800000B0F0
(0000000045.185479) vcan0 5A0#2B0100BF0000502B
(0000000045.193660) vcan0 0AE#8180000000000100
(0000000045.193683) vcan0 1A0#004B0000FEFE00D8
(0000000045.194017) vcan0 2A0#0000000100008081
(0000000045.194268) vcan0 4A0#00000000CCFFCCFF
(0000000045.203778) vcan0 0AE#9190000000000100
(0000000045.203885) vcan0 1A0#004B0000FEFE00D9
(0000000045.204168) vcan0 1AC#CC0C00006945FF13
(0000000045.204489) vcan0 2A0#0000000100009091
(0000000045.204701) vcan0 3A0#33CC0000F0FFFF0F
(0000000045.204924) vcan0 4A0#00000000CCFFCCFF
(0000000045.205201) vcan0 4A8#FF3F00800000C080
(0000000045.205489) vcan0 5A0#2B0100CF0000502B
(0000000045.213446) vcan0 0AE#A1A0000000000100
(0000000045.213769) vcan0 1A0#004B0000FEFE00DA
(0000000045.214038) vcan0 2A0#000000010000A0A1
(0000000045.214213) vcan0 4A0#00000000CCFFCCFF
(0000000045.223640) vcan0 0AE#B1B0000000000100
(0000000045.223849) vcan0 1A0#004B0000FEFE00DB
(0000000045.224240) vcan0 1AC#CD0D00006945FF13
(0000000045.224519) vcan0 2A0#000000010000B0B1
(0000000045.224699) vcan0 3A0#32CD0000F0FFFF0F
(0000000045.224903) vcan0 4A0#00000000CCFFCCFF
(0000000045.225176) vcan0 4A8#FF3F00800000D090
(0000000045.225496) vcan0 5A0#2B0100DF0000502B
(0000000045.233420) vcan0 0AE#C1C0000000000100
(0000000045.233696) vcan0 1A0#004B0000FEFE00DC
(0000000045.233966) vcan0 2A0#000000010000C0C1
(0000000045.234192) vcan0 4A0#00000000CCFFCCFF
(0000000045.243636) vcan0 0AE#D1D0000000000100
(0000000045.243894) vcan0 1A0#004B0000FEFE00DD
(0000000045.244175) vcan0 1AC#CE0E00006945FF13
(0000000045.244452) vcan0 2A0#000000010000D0D1
(0000000045.244666) vcan0 3A0#31CE0000F0FFFF0F
(0000000045.244956) vcan0 4A0#00000000CCFFCCFF
(0000000045.245159) vcan0 4A8#FF3F00800000E0A0
(0000000045.245451) vcan0 5A0#2B0100EF0000502B
(0000000045.245632) vcan0 723#01030000020000
(0000000045.253407) vcan0 0AE#E1E0000000000100
(0000000045.253691) vcan0 1A0#004B0000FEFE00DE
(0000000045.253986) vcan0 2A0#000000010000E0E1
(0000000045.254197) vcan0 4A0#00000000CCFFCCFF
(0000000045.263761) vcan0 0AE#F1F0000000000100
(0000000045.263907) vcan0 1A0#004B0000FEFE00DF
(0000000045.264233) vcan0 1AC#CF0F00006945FF13
(0000000045.264528) vcan0 2A0#000000010000F0F1
(0000000045.264659) vcan0 3A0#30CF0000F0FFFF0F
(0000000045.264932) vcan0 4A0#00000000CCFFCCFF
(0000000045.265162) vcan0 4A8#FF3F01000000F031
(0000000045.265520) vcan0 5A0#2B0100FF0000502B
(0000000045.273539) vcan0 0AE#0100000000000100
(0000000045.273753) vcan0 1A0#004B0000FEFE00D0
(0000000045.273960) vcan0 2A0#0000000100000001
(0000000045.274194) vcan0 4A0#00000000CCFFCCFF
(0000000045.283602) vcan0 0AE#1110000000000100
(0000000045.283949) vcan0 1A0#004B0000FEFE00D1
(0000000045.284143) vcan0 1AC#C00000006945FF13
(0000000045.284379) vcan0 2A0#0000000100001011
(0000000045.284680) vcan0 3A0#3FC00000F0FFFF0F
(0000000045.284904) vcan0 4A0#00000000CCFFCCFF
(0000000045.285147) vcan0 4A8#FF3F008000000040
(0000000045.285489) vcan0 5A0#2B01000F0000502B
(0000000045.293533) vcan0 0AE#2120000000000100
(0000000045.293760) vcan0 1A0#004B0000FEFE00D2
(0000000045.294002) vcan0 2A0#0000000100002021
(0000000045.294301) vcan0 4A0#00000000CCFFCCFF
(0000000045.303611) vcan0 0AE#3130000000000100
(0000000045.303881) vcan0 1A0#004B0000FEFE00D3
(0000000045.304213) vcan0 1AC#C10100006945FF13
(0000000045.304533) vcan0 2A0#0000000100003031
(0000000045.304689) vcan0 3A0#3EC10000F0FFFF0F
(0000000045.304991) vcan0 4A0#00000000CCFFCCFF
(0000000045.305210) vcan0 4A8#FF3F008000001050
(0000000045.305462) vcan0 5A0#2B01001F0000502B
(0000000045.313451) vcan0 0AE#4140000000000100
(0000000045.313736) vcan0 1A0#004B0000FEFE00D4
(0000000045.313995) vcan0 2A0#0000000100004041
(0000000045.314198) vcan0 4A0#00000000CCFFCCFF
(0000000045.323617) vcan0 0AE#5150000000000100
(0000000045.323885) vcan0 1A0#004B0000FEFE00D5
(0000000045.324185) vcan0 1AC#C20200006945FF13
(0000000045.324544) vcan0 2A0#0000000100005051
(0000000045.324683) vcan0 3A0#3DC20000F0FFFF0F
(0000000045.324903) vcan0 4A0#00000000CCFFCCFF
(0000000045.325169) vcan0 4A8#FF3F008000002060
(0000000045.325463) vcan0 5A0#2B01002F0000502B
(0000000045.333422) vcan0 0AE#6160000000000100
(0000000045.333745) vcan0 1A0#004B0000FEFE00D6
(0000000045.333982) vcan0 2A0#0000000100006061
(0000000045.334268) vcan0 4A0#00000000CCFFCCFF
(0000000045.343613) vcan0 0AE#7170000000000100
(0000000045.343867) vcan0 1A0#004B0000FEFE00D7
(0000000045.344138) vcan0 1AC#C30300006945FF13
(0000000045.344388) vcan0 2A0#0000000100007071
(0000000045.344625) vcan0 3A0#3CC30000F0FFFF0F
(0000000045.344873) vcan0 4A0#00000000CCFFCCFF
(0000000045.345109) vcan0 4A8#FF3F008000003070
(0000000045.345357) vcan0 5A0#2B01003F0000502B
(0000000045.345593) vcan0 723#01030000020000
(0000000045.353418) vcan0 0AE#8180000000000100
(0000000045.353663) vcan0 1A0#004B0000FEFE00D8
(0000000045.353902) vcan0 2A0#0000000100008081
(0000000045.354211) vcan0 4A0#00000000CCFFCCFF
(0000000045.363791) vcan0 0AE#9190000000000100
(0000000045.363916) vcan0 1A0#004B0000FEFE00D9
(0000000045.364279) vcan0 1AC#C40400006945FF13
(0000000045.364494) vcan0 2A0#0000000100009091
(0000000045.364716) vcan0 3A0#3BC40000F0FFFF0F
(0000000045.364937) vcan0 4A0#00000000CCFFCCFF
(0000000045.365169) vcan0 4A8#FF3F008000004000
(0000000045.365467) vcan0 5A0#2B01004F0000502B
(0000000045.373670) vcan0 0AE#A1A0000000000100
(0000000045.373681) vcan0 1A0#004B0000FEFE00DA
(0000000045.373948) vcan0 2A0#000000010000A0A1
(0000000045.374270) vcan0 4A0#00000000CCFFCCFF
(0000000045.383757) vcan0 0AE#B1B0000000000100
(0000000045.383931) vcan0 1A0#004B0000FEFE00DB
(0000000045.384238) vcan0 1AC#C50500006945FF13
(0000000045.384485) vcan0 2A0#000000010000B0B1
(0000000045.384672) vcan0 3A0#3AC50000F0FFFF0F
(0000000045.384946) vcan0 4A0#00000000CCFFCCFF
(0000000045.385215) vcan0 4A8#FF3F008000005010
(0000000045.385495) vcan0 5A0#2B01005F0000502B
(0000000045.393449) vcan0 0AE#C1C0000000000100
(0000000045.393758) vcan0 1A0#004B0000FEFE00DC
(0000000045.393990) vcan0 2A0#000000010000C0C1
(0000000045.394205) vcan0 4A0#00000000CCFFCCFF
(0000000045.403724) vcan0 0AE#D1D0000000000100
(0000000045.403968) vcan0 1A0#004B0000FEFE00DD
(0000000045.404239) vcan0 1AC#C60600006945FF13
(0000000045.404467) vcan0 2A0#000000010000D0D1
(0000000045.404728) vcan0 3A0#39C60000F0FFFF0F
(0000000045.404967) vcan0 4A0#00000000CCFFCCFF
(0000000045.405230) vcan0 4A8#FF3F008000006020
(0000000045.405465) vcan0 5A0#2B01006F0000502B
(0000000045.413431) vcan0 0AE#E1E0000000000100
(0000000045.413688) vcan0 1A0#004B0000FEFE00DE
(0000000045.413963) vcan0 2A0#000000010000E0E1
(0000000045.414234) vcan0 4A0#00000000CCFFCCFF
(0000000045.423657) vcan0 0AE#F1F0000000000100
(0000000045.423851) vcan0 1A0#004B0000FEFE00DF
(0000000045.424267) vcan0 1AC#C70700006945FF13
(0000000045.424511) vcan0 2A0#000000010000F0F1
(0000000045.424719) vcan0 3A0#38C70000F0FFFF0F
(0000000045.424968) vcan0 4A0#00000000CCFFCCFF
(0000000045.425220) vcan0 4A8#FF3F008000007030
(0000000045.425547) vcan0 5A0#2B01007F0000502B
(0000000045.433549) vcan0 0AE#0100000000000100
(0000000045.433747) vcan0 1A0#004B0000FEFE00D0
(0000000045.433972) vcan0 2A0#0000000100000001
(0000000045.434207) vcan0 4A0#00000000CCFFCCFF
(0000000045.443805) vcan0 0AE#1110000000000100
(0000000045.443947) vcan0 1A0#004B0000FEFE00D1
(0000000045.444224) vcan0 1AC#C80800006945FF13
(0000000045.444475) vcan0 2A0#0000000100001011
(0000000045.444704) vcan0 3A0#37C80000F0FFFF0F
(0000000045.444968) vcan0 4A0#00000000CCFFCCFF
(0000000045.445221) vcan0 4A8#FF3F0080000080C0
(0000000045.445515) vcan0 5A0#2B01008F0000502B
(0000000045.445693) vcan0 723#04030000020000
(0000000045.453623) vcan0 0AE#2120000000000100
(0000000045.453775) vcan0 1A0#004B0000FEFE00D2
(0000000045.454038) vcan0 2A0#0000000100002021
(0000000045.454261) vcan0 4A0#00000000CCFFCCFF
(0000000045.463741) vcan0 0AE#3130000000000100
(0000000045.463923) vcan0 1A0#004B0000FEFE00D3
(0000000045.464197) vcan0 1AC#C90900006945FF13
(0000000045.464479) vcan0 2A0#0000000100003031
(0000000045.464704) vcan0 3A0#36C90000F0FFFF0F
(0000000045.464951) vcan0 4A0#00000000CCFFCCFF
(0000000045.465214) vcan0 4A8#FF3F0080000090D0
(0000000045.465522) vcan0 5A0#2B01009F0000502B
(0000000045.473573) vcan0 0AE#4140000000000100
(0000000045.473691) vcan0 1A0#004B0000FEFE00D4
(0000000045.474042) vcan0 2A0#0000000100004041
(0000000045.474262) vcan0 4A0#00000000CCFFCCFF
(0000000045.483644) vcan0 0AE#5150000000000100
(0000000045.483853) vcan0 1A0#004B0000FEFE00D5
(0000000045.484265) vcan0 1AC#CA0A00006945FF13
(0000000045.484538) vcan0 2A0#0000000100005051
(0000000045.484698) vcan0 3A0#35CA0000F0FFFF0F
(0000000045.484926) vcan0 4A0#00000000CCFFCCFF
(0000000045.485158) vcan0 4A8#FF3F00800000A0E0
(0000000045.485397) vcan0 5A0#2B0100AF0000502B
(0000000045.493439) vcan0 0AE#6160000000000100
(0000000045.493703) vcan0 1A0#004B0000FEFE00D6
(0000000045.493952) vcan0 2A0#0000000100006061
(0000000045.494184) vcan0 4A0#00000000CCFFCCFF
(0000000045.503644) vcan0 0AE#7170000000000100
(0000000045.503997) vcan0 1A0#004B0000FEFE00D7
(0000000045.504195) vcan0 1AC#CB0B00006945FF13
(0000000045.504479) vcan0 2A0#0000000100007071
(0000000045.504657) vcan0 3A0#34CB0000F0FFFF0F
(0000000045.504958) vcan0 4A0#00000000CCFFCCFF
(0000000045.505176) vcan0 4A8#FF3F00800000B0F0
(0000000045.505411) vcan0 5A0#2B0100BF0000502B
(0000000045.513442) vcan0 0AE#8180000000000100
(0000000045.513666) vcan0 1A0#004B0000FEFE00D8
(0000000045.513935) vcan0 2A0#0000000100008081
(0000000045.514204) vcan0 4A0#00000000CCFFCCFF
(0000000045.523638) vcan0 0AE#9190000000000100
(0000000045.523878) vcan0 1A0#004B0000FEFE00D9
(0000000045.524245) vcan0 1AC#CC0C00006945FF13
(0000000045.524544) vcan0 2A0#0000000100009091
(0000000045.524654) vcan0 3A0#33CC0000F0FFFF0F
(0000000045.524918) vcan0 4A0#00000000CCFFCCFF
(0000000045.525181) vcan0 4A8#FF3F00800000C080
(0000000045.525515) vcan0 5A0#2B0100CF0000502B
(0000000045.533449) vcan0 0AE#A1A0000000000100
(0000000045.533710) vcan0 1A0#004B0000FEFE00DA
(0000000045.534001) vcan0 2A0#000000010000A0A1
(0000000045.534219) vcan0 4A0#00000000CCFFCCFF
(0000000045.543634) vcan0 0AE#B1B0000000000100
(0000000045.543937) vcan0 1A0#004B0000FEFE00DB
(0000000045.544205) vcan0 1AC#CD0D00006945FF13
(0000000045.544522) vcan0 2A0#000000010000B0B1
(0000000045.544737) vcan0 3A0#32CD0000F0FFFF0F
(0000000045.544974) vcan0 4A0#00000000CCFFCCFF
(0000000045.545223) vcan0 4A8#FF3F00800000D090
(0000000045.545477) vcan0 5A0#2B0100DF0000502B
(0000000045.545660) vcan0 723#04030000020000
(0000000045.553410) vcan0 0AE#C1C0000000000100
(0000000045.553692) vcan0 1A0#004B0000FEFE00DC
(0000000045.553928) vcan0 2A0#000000010000C0C1
(0000000045.554191) vcan0 4A0#00000000CCFFCCFF
(0000000045.563695) vcan0 0AE#D1D0000000000100
(0000000045.563878) vcan0 1A0#004B0000FEFE00DD
(0000000045.564226) vcan0 1AC#CE0E00006945FF13
(0000000045.564507) vcan0 2A0#000000010000D0D1
(0000000045.564700) vcan0 3A0#31CE0000F0FFFF0F
(0000000045.564929) vcan0 4A0#00000000CCFFCCFF
(0000000045.565237) vcan0 4A8#FF3F00800000E0A0
(0000000045.565535) vcan0 5A0#2B0100EF0000502B
(0000000045.573527) vcan0 0AE#E1E0000000000100
(0000000045.573705) vcan0 1A0#004B0000FEFE00DE
(0000000045.573909) vcan0 2A0#000000010000E0E1
(0000000045.574172) vcan0 4A0#00000000CCFFCCFF
(0000000045.583771) vcan0 0AE#F1F0000000000100
(0000000045.583955) vcan0 1A0#004B0000FEFE00DF
(0000000045.584228) vcan0 1AC#CF0F00006945FF13
(0000000045.584565) vcan0 2A0#000000010000F0F1
(0000000045.584733) vcan0 3A0#30CF0000F0FFFF0F
(0000000045.584990) vcan0 4A0#00000000CCFFCCFF
(0000000045.585226) vcan0 4A8#FF3F00800000F0B0
(0000000045.585512) vcan0 5A0#2B0100FF0000502B
(0000000045.593514) vcan0 0AE#0100000000000100
(0000000045.593698) vcan0 1A0#004B0000FEFE00D0
(0000000045.594025) vcan0 2A0#0000000100000001
(0000000045.594252) vcan0 4A0#00000000CCFFCCFF
(0000000045.603613) vcan0 0AE#1110000000000100
(0000000045.603980) vcan0 1A0#004B0000FEFE00D1
(0000000045.604274) vcan0 1AC#C00000006945FF13
(0000000045.604486) vcan0 2A0#0000000100001011
(0000000045.604723) vcan0 3A0#3FC00000F0FFFF0F
(0000000045.605047) vcan0 4A0#00000000CCFFCCFF
(0000000045.605309) vcan0 4A8#FF3F008000000040
(0000000045.605537) vcan0 5A0#2B01000F0000502B
(0000000045.613474) vcan0 0AE#2120000000000100
(0000000045.613721) vcan0 1A0#004B0000FEFE00D2
(0000000045.613987) vcan0 2A0#0000000100002021
(0000000045.614250) vcan0 4A0#00000000CCFFCCFF
(0000000045.623638) vcan0 0AE#3130000000000100
(0000000045.623897) vcan0 1A0#004B0000FEFE00D3
(0000000045.624184) vcan0 1AC#C10100006945FF13
(0000000045.624489) vcan0 2A0#0000000100003031
(0000000045.624675) vcan0 3A0#3EC10000F0FFFF0F
(0000000045.624944) vcan0 4A0#00000000CCFFCCFF
(0000000045.625175) vcan0 4A8#FF3F008000001050
(0000000045.625486) vcan0 5A0#2B01001F0000502B
(0000000045.633490) vcan0 0AE#4140000000000100
(0000000045.633725) vcan0 1A0#004B0000FEFE00D4
(0000000045.633989) vcan0 2A0#0000000100004041
(0000000045.634210) vcan0 4A0#00000000CCFFCCFF
(0000000045.643673) vcan0 0AE#5150000000000100
(0000000045.643977) vcan0 1A0#004B0000FEFE00D5
(0000000045.644245) vcan0 1AC#C20200006945FF13
(0000000045.644492) vcan0 2A0#0000000100005051
(0000000045.644710) vcan0 3A0#3DC20000F0FFFF0F
(0000000045.644940) vcan0 4A0#00000000CCFFCCFF
(0000000045.645233) vcan0 4A8#FF3F008000002060
(0000000045.645492) vcan0 5A0#2B01002F0000502B
(0000000045.645680) vcan0 723#04030000020000
(0000000045.653484) vcan0 0AE#6160000000000100
(0000000045.653703) vcan0 1A0#004B0000FEFE00D6
(0000000045.653932) vcan0 2A0#0000000100006061
(0000000045.654181) vcan0 4A0#00000000CCFFCCFF
(0000000045.663685) vcan0 0AE#7170000000000100
(0000000045.663847) vcan0 1A0#004B0000FEFE00D7
(0000000045.664209) vcan0 1AC#C30300006945FF13
(0000000045.664576) vcan0 2A0#0000000100007071
(0000000045.664683) vcan0 3A0#3CC30000F0FFFF0F
(0000000045.664984) vcan0 4A0#00000000CCFFCCFF
(0000000045.665188) vcan0 4A8#FF3F008000003070
(0000000045.665437) vcan0 5A0#2B01003F0000502B
(0000000045.673483) vcan0 0AE#8180000000000100
(0000000045.673682) vcan0 1A0#004B0000FEFE00D8
(0000000045.673965) vcan0 2A0#0000000100008081
(0000000045.674210) vcan0 4A0#00000000CCFFCCFF
(0000000045.683671) vcan0 0AE#9190000000000100
(0000000045.683868) vcan0 1A0#004B0000FEFE00D9
(0000000045.684248) vcan0 1AC#C40400006945FF13
(0000000045.684474) vcan0 2A0#0000000100009091
(0000000045.684675) vcan0 3A0#3BC40000F0FFFF0F
(0000000045.684911) vcan0 4A0#00000000CCFFCCFF
(0000000045.685184) vcan0 4A8#FF3F008000004000
(0000000045.685430) vcan0 5A0#2B01004F0000502B
(0000000045.693382) vcan0 0AE#A1A0000000000100
(0000000045.693743) vcan0 1A0#004B0000FEFE00DA
(0000000045.693967) vcan0 2A0#000000010000A0A1
(0000000045.694257) vcan0 4A0#00000000CCFFCCFF
(0000000045.703656) vcan0 0AE#B1B0000000000100
(0000000045.703900) vcan0 1A0#004B0000FEFE00DB
(0000000045.704309) vcan0 1AC#C50500006945FF13
(0000000045.704522) vcan0 2A0#000000010000B0B1
(0000000045.704734) vcan0 3A0#3AC50000F0FFFF0F
(0000000045.704995) vcan0 4A0#00000000CCFFCCFF
(0000000045.705226) vcan0 4A8#FF3F008000005010
(0000000045.705513) vcan0 5A0#2B01005F0000502B
(0000000045.713398) vcan0 0AE#C1C0000000000100
(0000000045.713696) vcan0 1A0#004B0000FEFE00DC
(0000000045.713922) vcan0 2A0#000000010000C0C1
(0000000045.714239) vcan0 4A0#00000000CCFFCCFF
(0000000045.723689) vcan0 0AE#D1D0000000000100
(0000000045.724076) vcan0 1A0#004B0000FEFE00DD
(0000000045.724221) vcan0 1AC#C60600006945FF13
(0000000045.724531) vcan0 2A0#000000010000D0D1
(0000000045.724706) vcan0 3A0#39C60000F0FFFF0F
(0000000045.724958) vcan0 4A0#00000000CCFFCCFF
(0000000045.725268) vcan0 4A8#FF3F008000006020
(0000000045.725448) vcan0 5A0#2B01006F0000502B
(0000000045.733485) vcan0 0AE#E1E0000000000100
(0000000045.733725) vcan0 1A0#004B0000FEFE00DE
(0000000045.733981) vcan0 2A0#000000010000E0E1
(0000000045.734240) vcan0 4A0#00000000CCFFCCFF
(0000000045.743620) vcan0 0AE#F1F0000000000100
(0000000045.743923) vcan0 1A0#004B0000FEFE00DF
(0000000045.744198) vcan0 1AC#C70700006945FF13
(0000000045.744506) vcan0 2A0#000000010000F0F1
(0000000045.744683) vcan0 3A0#38C70000F0FFFF0F
(0000000045.744942) vcan0 4A0#00000000CCFFCCFF
(0000000045.745179) vcan0 4A8#FF3F008000007030
(0000000045.745497) vcan0 5A0#2B01007F0000502B
(0000000045.745656) vcan0 723#04030000020000
(0000000045.753373) vcan0 0AE#0100000000000100
(0000000045.753659) vcan0 1A0#004B0000FEFE00D0
(0000000045.753926) vcan0 2A0#0000000100000001
(0000000045.754207) vcan0 4A0#00000000CCFFCCFF
(0000000045.763681) vcan0 0AE#1110000000000100
(0000000045.763870) vcan0 1A0#004B0000FEFE00D1
(0000000045.764166) vcan0 1AC#C80800006945FF13
(0000000045.764429) vcan0 2A0#0000000100001011
(0000000045.764654) vcan0 3A0#37C80000F0FFFF0F
(0000000045.764918) vcan0 4A0#00000000CCFFCCFF
(0000000045.765181) vcan0 4A8#FF3F0080000080C0
(0000000045.765395) vcan0 5A0#2B01008F0000502B
(0000000045.773510) vcan0 0AE#2120000000000100
(0000000045.773636) vcan0 1A0#004B0000FEFE00D2
(0000000045.773847) vcan0 2A0#0000000100002021
(0000000045.774109) vcan0 4A0#00000000CCFFCCFF
(0000000045.783837) vcan0 0AE#3130000000000100
(0000000045.783950) vcan0 1A0#004B0000FEFE00D3
(0000000045.784286) vcan0 1AC#C90900006945FF13
(0000000045.784556) vcan0 2A0#0000000100003031
(0000000045.784743) vcan0 3A0#36C90000F0FFFF0F
(0000000045.785006) vcan0 4A0#00000000CCFFCCFF
(0000000045.785261) vcan0 4A8#FF3F0080000090D0
(0000000045.785495) vcan0 5A0#2B01009F0000502B
(0000000045.793502) vcan0 0AE#4140000000000100
(0000000045.793651) vcan0 1A0#004B0000FEFE00D4
(0000000045.793957) vcan0 2A0#0000000100004041
(0000000045.794174) vcan0 4A0#00000000CCFFCCFF
(0000000045.803669) vcan0 0AE#5150000000000100
(0000000045.803881) vcan0 1A0#004B0000FEFE00D5
(0000000045.804325) vcan0 1AC#CA0A00006945FF13
(0000000045.804600) vcan0 2A0#0000000100005051
(0000000045.804693) vcan0 3A0#35CA0000F0FFFF0F
(0000000045.804949) vcan0 4A0#00000000CCFFCCFF
(0000000045.805260) vcan0 4A8#FF3F00800000A0E0
(0000000045.805548) vcan0 5A0#2B0100AF0000502B
(0000000045.813450) vcan0 0AE#6160000000000100
(0000000045.813648) vcan0 1A0#004B0000FEFE00D6
(0000000045.813882) vcan0 2A0#0000000100006061
(0000000045.814173) vcan0 4A0#00000000CCFFCCFF
(0000000045.823594) vcan0 0AE#7170000000000100
(0000000045.823856) vcan0 1A0#004B0000FEFE00D7
(0000000045.824214) vcan0 1AC#CB0B00006945FF13
(0000000045.824529) vcan0 2A0#0000000100007071
(0000000045.824655) vcan0 3A0#34CB0000F0FFFF0F
(0000000045.824917) vcan0 4A0#00000000CCFFCCFF
(0000000045.825151) vcan0 4A8#FF3F00800000B0F0
(0000000045.825415) vcan0 5A0#2B0100BF0000502B
(0000000045.833431) vcan0 0AE#8180000000000100
(0000000045.833695) vcan0 1A0#004B0000FEFE00D8
(0000000045.833935) vcan0 2A0#0000000100008081
(0000000045.834194) vcan0 4A0#00000000CCFFCCFF
(0000000045.843616) vcan0 0AE#9190000000000100
(0000000045.843902) vcan0 1A0#004B0000FEFE00D9
(0000000045.844197) vcan0 1AC#CC0C00006945FF13
(0000000045.844503) vcan0 2A0#0000000100009091
(0000000045.844692) vcan0 3A0#33CC0000F0FFFF0F
(0000000045.844952) vcan0 4A0#00000000CCFFCCFF
(0000000045.845188) vcan0 4A8#FF3F00800000C080
(0000000045.845508) vcan0 5A0#2B0100CF0000502B
(0000000045.845663) vcan0 723#04030000020000
(0000000045.853411) vcan0 0AE#A1A0000000000100
(0000000045.853682) vcan0 1A0#004B0000FEFE00DA
(0000000045.853896) vcan0 2A0#000000010000A0A1
(0000000045.854130) vcan0 4A0#00000000CCFFCCFF
(0000000045.863579) vcan0 0AE#B1B0000000000100
(0000000045.863883) vcan0 1A0#004B0000FEFE00DB
(0000000045.864196) vcan0 1AC#CD0D00006945FF13
(0000000045.864503) vcan0 2A0#000000010000B0B1
(0000000045.864687) vcan0 3A0#32CD0000F0FFFF0F
(0000000045.864953) vcan0 4A0#00000000CCFFCCFF
(0000000045.865191) vcan0 4A8#FF3F01000000D011
(0000000045.865427) vcan0 5A0#2B0100DF0000502B
(0000000045.873422) vcan0 0AE#C1C0000000000100
(0000000045.873654) vcan0 1A0#004B0000FEFE00DC
(0000000045.873884) vcan0 2A0#000000010000C0C1
(0000000045.874125) vcan0 4A0#00000000CCFFCCFF
(0000000045.883634) vcan0 0AE#D1D0000000000100
(0000000045.883893) vcan0 1A0#004B0000FEFE00DD
(0000000045.884201) vcan0 1AC#CE0E00006945FF13
(0000000045.884456) vcan0 2A0#000000010000D0D1
(0000000045.884667) vcan0 3A0#31CE0000F0FFFF0F
(0000000045.884974) vcan0 4A0#00000000CCFFCCFF
(0000000045.885171) vcan0 4A8#FF3F00800000E0A0
(0000000045.885408) vcan0 5A0#2B0100EF0000502B
(0000000045.893412) vcan0 0AE#E1E0000000000100
(0000000045.893660) vcan0 1A0#004B0000FEFE00DE
(0000000045.893913) vcan0 2A0#000000010000E0E1
(0000000045.894168) vcan0 4A0#00000000CCFFCCFF
(0000000045.903755) vcan0 0AE#F1F0000000000100
(0000000045.903998) vcan0 1A0#004B0000FEFE00DF
(0000000045.904271) vcan0 1AC#CF0F00006945FF13
(0000000045.904517) vcan0 2A0#000000010000F0F1
(0000000045.904753) vcan0 3A0#30CF0000F0FFFF0F
(0000000045.904993) vcan0 4A0#00000000CCFFCCFF
(0000000045.905243) vcan0 4A8#FF3F00800000F0B0
(0000000045.905506) vcan0 5A0#2B0100FF0000502B
(0000000045.913565) vcan0 0AE#0100000000000100
(0000000045.913683) vcan0 1A0#004B0000FEFE00D0
(0000000045.913891) vcan0 2A0#0000000100000001
(0000000045.914150) vcan0 4A0#00000000CCFFCCFF
(0000000045.923620) vcan0 0AE#1110000000000100
(0000000045.923943) vcan0 1A0#004B0000FEFE00D1
(0000000045.924252) vcan0 1AC#C00000006945FF13
(0000000045.924546) vcan0 2A0#0000000100001011
(0000000045.924688) vcan0 3A0#3FC00000F0FFFF0F
(0000000045.925001) vcan0 4A0#00000000CCFFCCFF
(0000000045.925190) vcan0 4A8#FF3F008000000040
(0000000045.925522) vcan0 5A0#2B01000F0000502B
(0000000045.933429) vcan0 0AE#2120000000000100
(0000000045.933720) vcan0 1A0#004B0000FEFE00D2
(0000000045.933914) vcan0 2A0#0000000100002021
(0000000045.934140) vcan0 4A0#00000000CCFFCCFF
(0000000045.943625) vcan0 0AE#3130000000000100
(0000000045.943979) vcan0 1A0#004B0000FEFE00D3
(0000000045.944231) vcan0 1AC#C10100006945FF13
(0000000045.944436) vcan0 2A0#0000000100003031
(0000000045.944674) vcan0 3A0#3EC10000F0FFFF0F
(0000000045.944917) vcan0 4A0#00000000CCFFCCFF
(0000000045.945177) vcan0 4A8#FF3F0100000010D1
(0000000045.945451) vcan0 5A0#2B01001F0000502B
(0000000045.945645) vcan0 723#04030000020000
(0000000045.953444) vcan0 0AE#4140000000000100
(0000000045.953702) vcan0 1A0#004B0000FEFE00D4
(0000000045.954040) vcan0 2A0#0000000100004041
(0000000045.954183) vcan0 4A0#00000000CCFFCCFF
(0000000045.963584) vcan0 0AE#5150000000000100
(0000000045.963889) vcan0 1A0#004B0000FEFE00D5
(0000000045.964208) vcan0 1AC#C20200006945FF13
(0000000045.964511) vcan0 2A0#0000000100005051
(0000000045.964725) vcan0 3A0#3DC20000F0FFFF0F
(0000000045.964974) vcan0 4A0#00000000CCFFCCFF
(0000000045.965217) vcan0 4A8#FF3F008000002060
(0000000045.965542) vcan0 5A0#2B01002F0000502B
(0000000045.973393) vcan0 0AE#6160000000000100
(0000000045.973657) vcan0 1A0#004B0000FEFE00D6
(0000000045.973918) vcan0 2A0#0000000100006061
(0000000045.974182) vcan0 4A0#00000000CCFFCCFF
(0000000045.983611) vcan0 0AE#7170000000000100
(0000000045.983905) vcan0 1A0#004B0000FEFE00D7
(0000000045.984189) vcan0 1AC#C30300006945FF13
(0000000045.984418) vcan0 2A0#0000000100007071
(0000000045.984650) vcan0 3A0#3CC30000F0FFFF0F
(0000000045.984917) vcan0 4A0#00000000CCFFCCFF
(0000000045.985163) vcan0 4A8#FF3F008000003070
(0000000045.985419) vcan0 5A0#2B01003F0000502B
(0000000045.993405) vcan0 0AE#8180000000000100
(0000000045.993789) vcan0 1A0#004B0000FEFE00D8
(0000000045.993998) vcan0 2A0#0000000100008081
(0000000045.994218) vcan0 4A0#00000000CCFFCCFF
(0000000046.003588) vcan0 0AE#9190000000000100
(0000000046.003841) vcan0 1A0#004B0000FEFE00D9
(0000000046.004184) vcan0 1AC#C40400006945FF13
(0000000046.004400) vcan0 2A0#0000000100009091
(0000000046.004652) vcan0 3A0#3BC40000F0FFFF0F
(0000000046.004892) vcan0 4A0#00000000CCFFCCFF
(0000000046.005155) vcan0 4A8#FF3F010000004081
(0000000046.005387) vcan0 5A0#2B01004F0000502B
(0000000046.013379) vcan0 0AE#A1A0000000000100
(0000000046.013603) vcan0 1A0#004B0000FEFE00DA
(0000000046.013866) vcan0 2A0#000000010000A0A1
(0000000046.014103) vcan0 4A0#00000000CCFFCCFF
(0000000046.023620) vcan0 0AE#B1B0000000000100
(0000000046.023795) vcan0 1A0#004B0000FEFE00DB
(0000000046.024063) vcan0 1AC#C50500006945FF13
(0000000046.024351) vcan0 2A0#000000010000B0B1
(0000000046.024548) vcan0 3A0#3AC50000F0FFFF0F
(0000000046.024901) vcan0 4A0#00000000CCFFCCFF
(0000000046.025075) vcan0 4A8#FF3F008000005010
(0000000046.025341) vcan0 5A0#2B01005F0000502B
(0000000046.033431) vcan0 0AE#C1C0000000000100
(0000000046.033664) vcan0 1A0#004B0000FEFE00DC
(0000000046.033873) vcan0 2A0#000000010000C0C1
(0000000046.034155) vcan0 4A0#00000000CCFFCCFF
(0000000046.043588) vcan0 0AE#D1D0000000000100
(0000000046.043860) vcan0 1A0#004B0000FEFE00DD
(0000000046.044183) vcan0 1AC#C60600006945FF13
(0000000046.044422) vcan0 2A0#000000010000D0D1
(0000000046.044656) vcan0 3A0#39C60000F0FFFF0F
(0000000046.044957) vcan0 4A0#00000000CCFFCCFF
(0000000046.045204) vcan0 4A8#FF3F008000006020
(0000000046.045395) vcan0 5A0#2B01006F000010AB
(0000000046.045626) vcan0 723#04030000020000
(0000000046.053427) vcan0 0AE#E1E0000000000100
(0000000046.053608) vcan0 1A0#004B0000FEFE00DE
(0000000046.053907) vcan0 2A0#000000010000E0E1
(0000000046.054110) vcan0 4A0#00000000CCFFCCFF
(0000000046.063592) vcan0 0AE#F1F0000000000100
(0000000046.063797) vcan0 1A0#004B0000FEFE00DF
(0000000046.064058) vcan0 1AC#C70700006945FF13
(0000000046.064320) vcan0 2A0#000000010000F0F1
(0000000046.064552) vcan0 3A0#38C70000F0FFFF0F
(0000000046.064820) vcan0 4A0#00000000CCFFCCFF
(0000000046.065093) vcan0 4A8#FF3F008000007030
(0000000046.065318) vcan0 5A0#2B01007F000010AB
(0000000046.073479) vcan0 0AE#0100000000000100
(0000000046.073774) vcan0 1A0#004B0000FEFE00D0
(0000000046.074018) vcan0 2A0#0000000100000001
(0000000046.074279) vcan0 4A0#00000000CCFFCCFF
(0000000046.083702) vcan0 0AE#1110000000000100
(0000000046.083880) vcan0 1A0#004B0000FEFE00D1
(0000000046.084234) vcan0 1AC#C80800006945FF13
(0000000046.084496) vcan0 2A0#0000000100001011
(0000000046.084679) vcan0 3A0#37C80000F0FFFF0F
(0000000046.084963) vcan0 4A0#00000000CCFFCCFF
(0000000046.085266) vcan0 4A8#FF3F0080000080C0
(0000000046.085419) vcan0 5A0#2B01008F000010AB
(0000000046.093401) vcan0 0AE#2120000000000100
(0000000046.093684) vcan0 1A0#004B0000FEFE00D2
(0000000046.094009) vcan0 2A0#0000000100002021
(0000000046.094218) vcan0 4A0#00000000CCFFCCFF
(0000000046.103680) vcan0 0AE#3130000000000100
(0000000046.103869) vcan0 1A0#004B0000FEFE00D3
(0000000046.104224) vcan0 1AC#C90900006945FF13
(0000000046.104471) vcan0 2A0#0000000100003031
(0000000046.104734) vcan0 3A0#36C90000F0FFFF0F
(0000000046.104979) vcan0 4A0#00000000CCFFCCFF
(0000000046.105169) vcan0 4A8#FF3F010000009051
(0000000046.105447) vcan0 5A0#2B01009F000010AB
(0000000046.113401) vcan0 0AE#4140000000000100
(0000000046.113683) vcan0 1A0#004B0000FEFE00D4
(0000000046.113956) vcan0 2A0#0000000100004041
(0000000046.114127) vcan0 4A0#00000000CCFFCCFF
(0000000046.123618) vcan0 0AE#5150000000000100
(0000000046.123854) vcan0 1A0#004B0000FEFE00D5
(0000000046.124247) vcan0 1AC#CA0A00006945FF13
(0000000046.124467) vcan0 2A0#0000000100005051
(0000000046.124727) vcan0 3A0#35CA0000F0FFFF0F
(0000000046.124917) vcan0 4A0#00000000CCFFCCFF
(0000000046.125225) vcan0 4A8#FF3F01000000A061
(0000000046.125438) vcan0 5A0#2B0100AF000010AB
(0000000046.133357) vcan0 0AE#6160000000000100
(0000000046.133670) vcan0 1A0#004B0000FEFE00D6
(0000000046.133918) vcan0 2A0#0000000100006061
(0000000046.134174) vcan0 4A0#00000000CCFFCCFF
(0000000046.143620) vcan0 0AE#7170000000000100
(0000000046.143863) vcan0 1A0#004B0000FEFE00D7
(0000000046.144079) vcan0 1AC#CB0B00006945FF13
(0000000046.144389) vcan0 2A0#0000000100007071
(0000000046.144637) vcan0 3A0#34CB0000F0FFFF0F
(0000000046.144840) vcan0 4A0#00000000CCFFCCFF
(0000000046.145109) vcan0 4A8#FF3F00800000B0F0
(0000000046.145373) vcan0 5A0#2B0100BF000010AB
(0000000046.145563) vcan0 723#04030000020000
(0000000046.153455) vcan0 0AE#8180000000000100
(0000000046.153804) vcan0 1A0#004B0000FEFE00D8
(0000000046.154043) vcan0 2A0#0000000100008081
(0000000046.154252) vcan0 4A0#00000000CCFFCCFF
(0000000046.163676) vcan0 0AE#9190000000000100
(0000000046.163879) vcan0 1A0#004B0000FEFE00D9
(0000000046.164200) vcan0 1AC#CC0C00006945FF13
(0000000046.164393) vcan0 2A0#0000000100009091
(0000000046.164593) vcan0 3A0#33CC0000F0FFFF0F
(0000000046.164909) vcan0 4A0#00000000CCFFCCFF
(0000000046.165095) vcan0 4A8#FF3F00800000C080
(0000000046.165403) vcan0 5A0#2B0100CF000010AB
(0000000046.173613) vcan0 0AE#A1A0000000000100
(0000000046.173625) vcan0 1A0#004B0000FEFE00DA
(0000000046.173853) vcan0 2A0#000000010000A0A1
(0000000046.174118) vcan0 4A0#00000000CCFFCCFF
(0000000046.183703) vcan0 0AE#B1B0000000000100
(0000000046.183856) vcan0 1A0#004B0000FEFE00DB
(0000000046.184203) vcan0 1AC#CD0D00006945FF13
(0000000046.184514) vcan0 2A0#000000010000B0B1
(0000000046.184668) vcan0 3A0#32CD0000F0FFFF0F
(0000000046.184935) vcan0 4A0#00000000CCFFCCFF
(0000000046.185209) vcan0 4A8#FF3F00800000D090
(0000000046.185408) vcan0 5A0#2B0100DF000010AB
(0000000046.193510) vcan0 0AE#C1C0000000000100
(0000000046.193682) vcan0 1A0#004B0000FEFE00DC
(0000000046.193900) vcan0 2A0#000000010000C0C1
(0000000046.194094) vcan0 4A0#00000000CCFFCCFF
(0000000046.203682) vcan0 0AE#D1D0000000000100
(0000000046.203847) vcan0 1A0#004B0000FEFE00DD
(0000000046.204082) vcan0 1AC#CE0E00006945FF13
(0000000046.204307) vcan0 2A0#000000010000D0D1
(0000000046.204579) vcan0 3A0#31CE0000F0FFFF0F
(0000000046.204856) vcan0 4A0#00000000CCFFCCFF
(0000000046.205075) vcan0 4A8#FF3F00800000E0A0
(0000000046.205315) vcan0 5A0#2B0100EF000010AB
(0000000046.213493) vcan0 0AE#E1E0000000000100
(0000000046.213663) vcan0 1A0#004B0000FEFE00DE
(0000000046.213894) vcan0 2A0#000000010000E0E1
(0000000046.214130) vcan0 4A0#00000000CCFFCCFF
(0000000046.223695) vcan0 0AE#F1F0000000000100
(0000000046.223886) vcan0 1A0#004B0000FEFE00DF
(0000000046.224216) vcan0 1AC#CF0F00006945FF13
(0000000046.224497) vcan0 2A0#000000010000F0F1
(0000000046.224697) vcan0 3A0#30CF0000F0FFFF0F
(0000000046.224967) vcan0 4A0#00000000CCFFCCFF
(0000000046.225201) vcan0 4A8#FF3F00800000F0B0
(0000000046.225437) vcan0 5A0#2B0100FF000010AB
(0000000046.233452) vcan0 0AE#0100000000000100
(0000000046.233799) vcan0 1A0#004B0000FEFE00D0
(0000000046.234045) vcan0 2A0#0000000100000001
(0000000046.234242) vcan0 4A0#00000000CCFFCCFF
(0000000046.243608) vcan0 0AE#1110000000000100
(0000000046.243874) vcan0 1A0#004B0000FEFE00D1
(0000000046.244216) vcan0 1AC#C00000006945FF13
(0000000046.244459) vcan0 2A0#0000000100001011
(0000000046.244711) vcan0 3A0#3FC00000F0FFFF0F
(0000000046.244969) vcan0 4A0#00000000CCFFCCFF
(0000000046.245200) vcan0 4A8#FF3F0100000000C1
(0000000046.245439) vcan0 5A0#2B01000F000010AB
(0000000046.245674) vcan0 723#04030000020000
(0000000046.253454) vcan0 0AE#2120000000000100
(0000000046.253718) vcan0 1A0#004B0000FEFE00D2
(0000000046.253979) vcan0 2A0#0000000100002021
(0000000046.254166) vcan0 4A0#00000000CCFFCCFF
(0000000046.263596) vcan0 0AE#3130000000000100
(0000000046.263847) vcan0 1A0#004B0000FEFE00D3
(0000000046.264186) vcan0 1AC#C10100006945FF13
(0000000046.264428) vcan0 2A0#0000000100003031
(0000000046.264656) vcan0 3A0#3EC10000F0FFFF0F
(0000000046.264925) vcan0 4A0#00000000CCFFCCFF
(0000000046.265187) vcan0 4A8#FF3F008000001050
(0000000046.265422) vcan0 5A0#2B01001F000010AB
(0000000046.273397) vcan0 0AE#4140000000000100
(0000000046.273664) vcan0 1A0#004B0000FEFE00D4
(0000000046.273895) vcan0 2A0#0000000100004041
(0000000046.274151) vcan0 4A0#00000000CCFFCCFF
(0000000046.283696) vcan0 0AE#5150000000000100
(0000000046.283872) vcan0 1A0#004B0000FEFE00D5
(0000000046.284069) vcan0 1AC#C20200006945FF13
(0000000046.284337) vcan0 2A0#0000000100005051
(0000000046.284605) vcan0 3A0#3DC20000F0FFFF0F
(0000000046.284983) vcan0 4A0#00000000CCFFCCFF
(0000000046.285123) vcan0 4A8#FF3F008000002060
(0000000046.285355) vcan0 5A0#2B01002F000010AB
(0000000046.293557) vcan0 0AE#6160000000000100
(0000000046.293755) vcan0 1A0#004B0000FEFE00D6
(0000000046.293982) vcan0 2A0#0000000100006061
(0000000046.294217) vcan0 4A0#00000000CCFFCCFF
(0000000046.303864) vcan0 0AE#7170000000000100
(0000000046.303885) vcan0 1A0#004B0000FEFE00D7
(0000000046.304171) vcan0 1AC#C30300006945FF13
(0000000046.304431) vcan0 2A0#0000000100007071
(0000000046.304655) vcan0 3A0#3CC30000F0FFFF0F
(0000000046.304922) vcan0 4A0#00000000CCFFCCFF
(0000000046.305155) vcan0 4A8#FF3F008000003070
(0000000046.305417) vcan0 5A0#2B01003F000010AB
(0000000046.313587) vcan0 0AE#8180000000000100
(0000000046.313747) vcan0 1A0#004B0000FEFE00D8
(0000000046.313972) vcan0 2A0#0000000100008081
(0000000046.314216) vcan0 4A0#00000000CCFFCCFF
(0000000046.323676) vcan0 0AE#9190000000000100
(0000000046.323822) vcan0 1A0#004B0000FEFE00D9
(0000000046.324069) vcan0 1AC#C40400006945FF13
(0000000046.324361) vcan0 2A0#0000000100009091
(0000000046.324589) vcan0 3A0#3BC40000F0FFFF0F
(0000000046.324856) vcan0 4A0#00000000CCFFCCFF
(0000000046.325153) vcan0 4A8#FF3F008000004000
(0000000046.325346) vcan0 5A0#2B01004F000010AB
(0000000046.333465) vcan0 0AE#A1A0000000000100
(0000000046.333675) vcan0 1A0#004B0000FEFE00DA
(0000000046.333918) vcan0 2A0#000000010000A0A1
(0000000046.334147) vcan0 4A0#00000000CCFFCCFF
(0000000046.343629) vcan0 0AE#B1B0000000000100
(0000000046.343861) vcan0 1A0#004B0000FEFE00DB
(0000000046.344211) vcan0 1AC#C50500006945FF13
(0000000046.344415) vcan0 2A0#000000010000B0B1
(0000000046.344690) vcan0 3A0#3AC50000F0FFFF0F
(0000000046.344922) vcan0 4A0#00000000CCFFCCFF
(0000000046.345193) vcan0 4A8#FF3F010000005091
(0000000046.345451) vcan0 5A0#2B01005F000010AB
(0000000046.345661) vcan0 723#04030000020000
(0000000046.353441) vcan0 0AE#C1C0000000000100
(0000000046.353658) vcan0 1A0#004B0000FEFE00DC
(0000000046.353926) vcan0 2A0#000000010000C0C1
(0000000046.354179) vcan0 4A0#00000000CCFFCCFF
(0000000046.363619) vcan0 0AE#D1D0000000000100
(0000000046.363848) vcan0 1A0#004B0000FEFE00DD
(0000000046.364170) vcan0 1AC#C60600006945FF13
(0000000046.364364) vcan0 2A0#000000010000D0D1
(0000000046.364570) vcan0 3A0#39C60000F0FFFF0F
(0000000046.364833) vcan0 4A0#00000000CCFFCCFF
(0000000046.365079) vcan0 4A8#FF3F008000006020
(0000000046.365372) vcan0 5A0#2B01006F000010AB
(0000000046.373573) vcan0 0AE#E1E0000000000100
(0000000046.373659) vcan0 1A0#004B0000FEFE00DE
(0000000046.373893) vcan0 2A0#000000010000E0E1
(0000000046.374185) vcan0 4A0#00000000CCFFCCFF
(0000000046.383779) vcan0 0AE#F1F0000000000100
(0000000046.383954) vcan0 1A0#004B0000FEFE00DF
(0000000046.384201) vcan0 1AC#C70700006945FF13
(0000000046.384406) vcan0 2A0#000000010000F0F1
(0000000046.384664) vcan0 3A0#38C70000F0FFFF0F
(0000000046.384957) vcan0 4A0#00000000CCFFCCFF
(0000000046.385194) vcan0 4A8#FF3F0100000070B1
(0000000046.385357) vcan0 5A0#2B01007F000010AB
(0000000046.393434) vcan0 0AE#0100000000000100
(0000000046.393745) vcan0 1A0#004B0000FEFE00D0
(0000000046.393989) vcan0 2A0#0000000100000001
(0000000046.394289) vcan0 4A0#00000000CCFFCCFF
(0000000046.403762) vcan0 0AE#1110000000000100
(0000000046.403791) vcan0 1A0#004B0000FEFE00D1
(0000000046.404053) vcan0 1AC#C80800006945FF13
(0000000046.404322) vcan0 2A0#0000000100001011
(0000000046.404585) vcan0 3A0#37C80000F0FFFF0F
(0000000046.404815) vcan0 4A0#00000000CCFFCCFF
(0000000046.405077) vcan0 4A8#FF3F010000008041
(0000000046.405313) vcan0 5A0#2B01008F000010AB
(0000000046.413482) vcan0 0AE#2120000000000100
(0000000046.413670) vcan0 1A0#004B0000FEFE00D2
(0000000046.413907) vcan0 2A0#0000000100002021
(0000000046.414116) vcan0 4A0#00000000CCFFCCFF
(0000000046.423691) vcan0 0AE#3130000000000100
(0000000046.423889) vcan0 1A0#004B0000FEFE00D3
(0000000046.424077) vcan0 1AC#C90900006945FF13
(0000000046.424314) vcan0 2A0#0000000100003031
(0000000046.424559) vcan0 3A0#36C90000F0FFFF0F
(0000000046.424820) vcan0 4A0#00000000CCFFCCFF
(0000000046.425083) vcan0 4A8#FF3F010000009051
(0000000046.425325) vcan0 5A0#2B01009F000010AB
(0000000046.433439) vcan0 0AE#4140000000000100
(0000000046.433663) vcan0 1A0#004B0000FEFE00D4
(0000000046.433907) vcan0 2A0#0000000100004041
(0000000046.434126) vcan0 4A0#00000000CCFFCCFF
(0000000046.443676) vcan0 0AE#5150000000000100
(0000000046.443874) vcan0 1A0#004B0000FEFE00D5
(0000000046.444182) vcan0 1AC#CA0A00006945FF13
(0000000046.444443) vcan0 2A0#0000000100005051
(0000000046.444687) vcan0 3A0#35CA0000F0FFFF0F
(0000000046.444948) vcan0 4A0#00000000CCFFCCFF
(0000000046.445210) vcan0 4A8#FF3F00800000A0E0
(0000000046.445488) vcan0 5A0#2B0100AF000010AB
(0000000046.445647) vcan0 723#04030000020000
(0000000046.453383) vcan0 0AE#6160000000000100
(0000000046.453682) vcan0 1A0#004B0000FEFE00D6
(0000000046.453938) vcan0 2A0#0000000100006061
(0000000046.454160) vcan0 4A0#00000000CCFFCCFF
(0000000046.463640) vcan0 0AE#7170000000000100
(0000000046.463810) vcan0 1A0#004B0000FEFE00D7
(0000000046.464104) vcan0 1AC#CB0B00006945FF13
(0000000046.464352) vcan0 2A0#0000000100007071
(0000000046.464571) vcan0 3A0#34CB0000F0FFFF0F
(0000000046.464828) vcan0 4A0#00000000CCFFCCFF
(0000000046.465090) vcan0 4A8#FF3F00800000B0F0
(0000000046.465372) vcan0 5A0#2B0100BF000010AB
(0000000046.473499) vcan0 0AE#8180000000000100
(0000000046.473664) vcan0 1A0#004B0000FEFE00D8
(0000000046.474034) vcan0 2A0#0000000100008081
(0000000046.474222) vcan0 4A0#00000000CCFFCCFF
(0000000046.483633) vcan0 0AE#9190000000000100
(0000000046.483968) vcan0 1A0#004B0000FEFE00D9
(0000000046.484287) vcan0 1AC#CC0C00006945FF13
(0000000046.484462) vcan0 2A0#0000000100009091
(0000000046.484719) vcan0 3A0#33CC0000F0FFFF0F
(0000000046.484982) vcan0 4A0#00000000CCFFCCFF
(0000000046.485205) vcan0 4A8#FF3F00800000C080
(0000000046.485462) vcan0 5A0#2B0100CF000010AB
(0000000046.493402) vcan0 0AE#A1A0000000000100
(0000000046.493661) vcan0 1A0#004B0000FEFE00DA
(0000000046.493899) vcan0 2A0#000000010000A0A1
(0000000046.494164) vcan0 4A0#00000000CCFFCCFF
(0000000046.503646) vcan0 0AE#B1B0000000000100
(0000000046.503926) vcan0 1A0#004B0000FEFE00DB
(0000000046.504267) vcan0 1AC#CD0D00006945FF13
(0000000046.504508) vcan0 2A0#000000010000B0B1
(0000000046.504697) vcan0 3A0#32CD0000F0FFFF0F
(0000000046.504998) vcan0 4A0#00000000CCFFCCFF
(0000000046.505191) vcan0 4A8#FF3F01000000D011
(0000000046.505471) vcan0 5A0#2B0100DF000010AB
(0000000046.513433) vcan0 0AE#C1C0000000000100
(0000000046.513712) vcan0 1A0#004B0000FEFE00DC
(0000000046.513977) vcan0 2A0#000000010000C0C1
(0000000046.514260) vcan0 4A0#00000000CCFFCCFF
(0000000046.523582) vcan0 0AE#D1D0000000000100
(0000000046.523853) vcan0 1A0#004B0000FEFE00DD
(0000000046.524169) vcan0 1AC#CE0E00006945FF13
(0000000046.524474) vcan0 2A0#000000010000D0D1
(0000000046.524678) vcan0 3A0#31CE0000F0FFFF0F
(0000000046.524914) vcan0 4A0#00000000CCFFCCFF
(0000000046.525175) vcan0 4A8#FF3F00800000E0A0
(0000000046.525407) vcan0 5A0#2B0100EF000010AB
(0000000046.533422) vcan0 0AE#E1E0000000000100
(0000000046.533657) vcan0 1A0#004B0000FEFE00DE
(0000000046.533898) vcan0 2A0#000000010000E0E1
(0000000046.534118) vcan0 4A0#00000000CCFFCCFF
(0000000046.543599) vcan0 0AE#F1F0000000000100
(0000000046.543954) vcan0 1A0#004B0000FEFE00DF
(0000000046.544215) vcan0 1AC#CF0F00006945FF13
(0000000046.544481) vcan0 2A0#000000010000F0F1
(0000000046.544671) vcan0 3A0#30CF0000F0FFFF0F
(0000000046.544933) vcan0 4A0#00000000CCFFCCFF
(0000000046.545165) vcan0 4A8#FF3F01000000F031
(0000000046.545428) vcan0 5A0#2B0100FF000010AB
(0000000046.545642) vcan0 723#04030000020000
(0000000046.553586) vcan0 0AE#0100000000000100
(0000000046.553704) vcan0 1A0#004B0000FEFE00D0
(0000000046.554038) vcan0 2A0#0000000100000001
(0000000046.554261) vcan0 4A0#00000000CCFFCCFF
(0000000046.563784) vcan0 0AE#1110000000000100
(0000000046.563899) vcan0 1A0#004B0000FEFE00D1
(0000000046.564069) vcan0 1AC#C00000006945FF13
(0000000046.564366) vcan0 2A0#0000000100001011
(0000000046.564600) vcan0 3A0#3FC00000F0FFFF0F
(0000000046.564867) vcan0 4A0#00000000CCFFCCFF
(0000000046.565091) vcan0 4A8#FF3F008000000040
(0000000046.565365) vcan0 5A0#2B01000F000010AB
(0000000046.573532) vcan0 0AE#2120000000000100
(0000000046.573639) vcan0 1A0#004B0000FEFE00D2
(0000000046.573965) vcan0 2A0#0000000100002021
(0000000046.574213) vcan0 4A0#00000000CCFFCCFF
(0000000046.583666) vcan0 0AE#3130000000000100
(0000000046.583877) vcan0 1A0#004B0000FEFE00D3
(0000000046.584150) vcan0 1AC#C10100006945FF13
(0000000046.584367) vcan0 2A0#0000000100003031
(0000000046.584606) vcan0 3A0#3EC10000F0FFFF0F
(0000000046.584877) vcan0 4A0#00000000CCFFCCFF
(0000000046.585133) vcan0 4A8#FF3F008000001050
(0000000046.585346) vcan0 5A0#2B01001F000010AB
(0000000046.593457) vcan0 0AE#4140000000000100
(0000000046.593653) vcan0 1A0#004B0000FEFE00D4
(0000000046.593929) vcan0 2A0#0000000100004041
(0000000046.594138) vcan0 4A0#00000000CCFFCCFF
(0000000046.603713) vcan0 0AE#5150000000000100
(0000000046.603927) vcan0 1A0#004B0000FEFE00D5
(0000000046.604205) vcan0 1AC#C20200006945FF13
(0000000046.604382) vcan0 2A0#0000000100005051
(0000000046.604694) vcan0 3A0#3DC20000F0FFFF0F
(0000000046.604886) vcan0 4A0#00000000CCFFCCFF
(0000000046.605155) vcan0 4A8#FF3F008000002060
(0000000046.605385) vcan0 5A0#2B01002F000010AB
(0000000046.613394) vcan0 0AE#6160000000000100
(0000000046.613685) vcan0 1A0#004B0000FEFE00D6
(0000000046.614021) vcan0 2A0#0000000100006061
(0000000046.614148) vcan0 4A0#00000000CCFFCCFF
(0000000046.623689) vcan0 0AE#7170000000000100
(0000000046.623844) vcan0 1A0#004B0000FEFE00D7
(0000000046.624168) vcan0 1AC#C30300006945FF13
(0000000046.624436) vcan0 2A0#0000000100007071
(0000000046.624605) vcan0 3A0#3CC30000F0FFFF0F
(0000000046.624922) vcan0 4A0#00000000CCFFCCFF
(0000000046.625152) vcan0 4A8#FF3F008000003070
(0000000046.625369) vcan0 5A0#2B01003F000010AB
(0000000046.633495) vcan0 0AE#8180000000000100
(0000000046.633819) vcan0 1A0#004B0000FEFE00D8
(0000000046.634061) vcan0 2A0#0000000100008081
(0000000046.634322) vcan0 4A0#00000000CCFFCCFF
(0000000046.643711) vcan0 0AE#9190000000000100
(0000000046.644008) vcan0 1A0#004B0000FEFE00D9
(0000000046.644294) vcan0 1AC#C40400006945FF13
(0000000046.644513) vcan0 2A0#0000000100009091
(0000000046.644751) vcan0 3A0#3BC40000F0FFFF0F
(0000000046.645005) vcan0 4A0#00000000CCFFCCFF
(0000000046.645239) vcan0 4A8#FF3F010000004081
(0000000046.645477) vcan0 5A0#2B01004F0000502B
(0000000046.645711) vcan0 723#04030000020000
(0000000046.653393) vcan0 0AE#A1A0000000000100
(0000000046.653669) vcan0 1A0#004B0000FEFE00DA
(0000000046.653953) vcan0 2A0#000000010000A0A1
(0000000046.654173) vcan0 4A0#00000000CCFFCCFF
(0000000046.663680) vcan0 0AE#B1B0000000000100
(0000000046.663939) vcan0 1A0#004B0000FEFE00DB
(0000000046.664228) vcan0 1AC#854500006945FF13
(0000000046.664527) vcan0 2A0#000000010000B0B1
(0000000046.664732) vcan0 3A0#3AC50000F0FFFF0F
(0000000046.664966) vcan0 4A0#00000000CCFFCCFF
(0000000046.665287) vcan0 4A8#FF3F008000005010
(0000000046.665471) vcan0 5A0#2B01005F0000502B
(0000000046.673636) vcan0 0AE#C1C0000000000100
(0000000046.673999) vcan0 1A0#004B0000FEFE00DC
(0000000046.674338) vcan0 2A0#000000010000C0C1
(0000000046.674508) vcan0 4A0#00000000CCFFCCFF
(0000000046.683858) vcan0 0AE#D1D0000000000100
(0000000046.684040) vcan0 1A0#004B0000FEFE00DD
(0000000046.684309) vcan0 1AC#864600006945FF13
(0000000046.684618) vcan0 2A0#000000010000D0D1
(0000000046.684811) vcan0 3A0#39C60000F0FFFF0F
(0000000046.685095) vcan0 4A0#00000000CCFFCCFF
(0000000046.685322) vcan0 4A8#FF3F008000006020
(0000000046.685593) vcan0 5A0#FF00006B0000502B
(0000000046.693599) vcan0 0AE#E1E0000000000100
(0000000046.693973) vcan0 1A0#004B0000FEFE00DE
(0000000046.694314) vcan0 2A0#000000010000E0E1
(0000000046.694548) vcan0 4A0#00000000CCFFCCFF
(0000000046.703825) vcan0 0AE#F1F0000000000100
(0000000046.704017) vcan0 1A0#004B0000FEFE00DF
(0000000046.704332) vcan0 1AC#874700006945FF13
(0000000046.704632) vcan0 2A0#000000010000F0F1
(0000000046.704852) vcan0 3A0#38C70000F0FFFF0F
(0000000046.705147) vcan0 4A0#00000000CCFFCCFF
(0000000046.705379) vcan0 4A8#FF3F008000007030
(0000000046.705659) vcan0 5A0#FF00007B0000502B
(0000000046.713599) vcan0 0AE#0100000000000100
(0000000046.713949) vcan0 1A0#004F0000FEFE00D0
(0000000046.714319) vcan0 2A0#0000000000000000
(0000000046.714510) vcan0 4A0#00000000CCFFCCFF
(0000000046.723850) vcan0 0AE#1110000000000100
(0000000046.724023) vcan0 1A0#004F0000FEFE00D1
(0000000046.724383) vcan0 1AC#884800006945FF13
(0000000046.724602) vcan0 2A0#0000000000001010
(0000000046.724869) vcan0 3A0#37C80000F0FFFF0F
(0000000046.725099) vcan0 4A0#00000000CCFFCCFF
(0000000046.725330) vcan0 4A8#FF3F0080000080C0
(0000000046.725618) vcan0 5A0#FF000087A400502B
(0000000046.733716) vcan0 0AE#2120000000000100
(0000000046.733850) vcan0 1A0#004F0000FEFE00D2
(0000000046.734120) vcan0 2A0#0000000000002020
(0000000046.734427) vcan0 4A0#00000000CCFFCCFF
(0000000046.743811) vcan0 0AE#3130000000000100
(0000000046.744027) vcan0 1A0#004F0000FEFE00D3
(0000000046.744309) vcan0 1AC#894900006945FF13
(0000000046.744622) vcan0 2A0#0000000000003030
(0000000046.744819) vcan0 3A0#36C90000F0FFFF0F
(0000000046.745110) vcan0 4A0#00000000CCFFCCFF
(0000000046.745355) vcan0 4A8#FF3F0080000090D0
(0000000046.745577) vcan0 5A0#FF000097A400502B
(0000000046.745828) vcan0 723#04030000020000
(0000000046.753651) vcan0 0AE#4140000000000100
(0000000046.753873) vcan0 1A0#004F0000FEFE00D4
(0000000046.754200) vcan0 2A0#0000000000004040
(0000000046.754482) vcan0 4A0#00000000CCFFCCFF
(0000000046.763798) vcan0 0AE#5150000000000100
(0000000046.763999) vcan0 1A0#004F0000FEFE00D5
(0000000046.764290) vcan0 1AC#8A4A00006945FF13
(0000000046.764588) vcan0 2A0#0000000000005050
(0000000046.764767) vcan0 3A0#35CA0000F0FFFF0F
(0000000046.765032) vcan0 4A0#00000000CCFFCCFF
(0000000046.765264) vcan0 4A8#FF3F01000000A061
(0000000046.765582) vcan0 5A0#FF0000A7A400502B
(0000000046.773627) vcan0 0AE#6160000000000100
(0000000046.773930) vcan0 1A0#004F0000FEFE00D6
(0000000046.774273) vcan0 2A0#0000000000006060
(0000000046.774607) vcan0 4A0#00000000CCFFCCFF
(0000000046.783815) vcan0 0AE#7170000000000100
(0000000046.784044) vcan0 1A0#004F0000FEFE00D7
(0000000046.784331) vcan0 1AC#8B4B00006945FF13
(0000000046.784584) vcan0 2A0#0000000000007070
(0000000046.784797) vcan0 3A0#34CB0000F0FFFF0F
(0000000046.785049) vcan0 4A0#00000000CCFFCCFF
(0000000046.785286) vcan0 4A8#FF3F01000000B071
(0000000046.785613) vcan0 5A0#FF0000B7A400502B
(0000000046.793812) vcan0 0AE#8180000000000100
(0000000046.793923) vcan0 1A0#004F0000FEFE00D8
(0000000046.794283) vcan0 2A0#0000000000008080
(0000000046.794539) vcan0 4A0#00000000CCFFCCFF
(0000000046.803951) vcan0 0AE#9190000000000100
(0000000046.804046) vcan0 1A0#004F0000FEFE00D9
(0000000046.804259) vcan0 1AC#8C4C00006945FF13
(0000000046.804502) vcan0 2A0#0000000000009090
(0000000046.804753) vcan0 3A0#33CC0000F0FFFF0F
(0000000046.805041) vcan0 4A0#00000000CCFFCCFF
(0000000046.805266) vcan0 4A8#FF3F00800000C080
(0000000046.805505) vcan0 5A0#FF0000C7A400502B
(0000000046.813656) vcan0 0AE#A1A0000000000100
(0000000046.813950) vcan0 1A0#004F0000FEFE00DA
(0000000046.814241) vcan0 2A0#000000000000A0A0
(0000000046.814491) vcan0 4A0#00000000CCFFCCFF
(0000000046.823894) vcan0 0AE#B1B0000000000100
(0000000046.824011) vcan0 1A0#004F0000FEFE00DB
(0000000046.824282) vcan0 1AC#8D4D00006945FF13
(0000000046.824673) vcan0 2A0#000000000000B0B0
(0000000046.824770) vcan0 3A0#32CD0000F0FFFF0F
(0000000046.825034) vcan0 4A0#00000000CCFFCCFF
(0000000046.825305) vcan0 4A8#FF3F00800000D090
(0000000046.825551) vcan0 5A0#FF0000D7A400502B
(0000000046.833686) vcan0 0AE#C1C0000000000100
(0000000046.833906) vcan0 1A0#004F0000FEFE00DC
(0000000046.834190) vcan0 2A0#000000000000C0C0
(0000000046.834454) vcan0 4A0#00000000CCFFCCFF
(0000000046.843800) vcan0 0AE#D1D0000000000100
(0000000046.844042) vcan0 1A0#004F0000FEFE00DD
(0000000046.844369) vcan0 1AC#8E4E00006945FF13
(0000000046.844589) vcan0 2A0#000000000000D0D0
(0000000046.844773) vcan0 3A0#31CE0000F0FFFF0F
(0000000046.845045) vcan0 4A0#00000000CCFFCCFF
(0000000046.845286) vcan0 4A8#FF3F00800000E0A0
(0000000046.845630) vcan0 5A0#FF0000E7A400502B
(0000000046.845745) vcan0 723#04030000020000
(0000000046.853672) vcan0 0AE#E1E0000000000100
(0000000046.854012) vcan0 1A0#004F0000FEFE00DE
(0000000046.854224) vcan0 2A0#000000000000E0E0
(0000000046.854445) vcan0 4A0#00000000CCFFCCFF
(0000000046.863798) vcan0 0AE#F1F0000000000100
(0000000046.864037) vcan0 1A0#004F0000FEFE00DF
(0000000046.864338) vcan0 1AC#8F4F00006945FF13
(0000000046.864552) vcan0 2A0#000000000000F0F0
(0000000046.864757) vcan0 3A0#30CF0000F0FFFF0F
(0000000046.864993) vcan0 4A0#00000000CCFFCCFF
(0000000046.865309) vcan0 4A8#FF3F00800000F0B0
(0000000046.865552) vcan0 5A0#FF0000F7A400502B
(0000000046.873798) vcan0 0AE#0100000000000100
(0000000046.873939) vcan0 1A0#004F0000FEFE00D0
(0000000046.874168) vcan0 2A0#0000000000000000
(0000000046.874452) vcan0 4A0#00000000CCFFCCFF
(0000000046.884113) vcan0 0AE#1110000000000100
(0000000046.884125) vcan0 1A0#004F0000FEFE00D1
(0000000046.884321) vcan0 1AC#804000006945FF13
(0000000046.884514) vcan0 2A0#0000000000001010
(0000000046.884792) vcan0 3A0#3FC00000F0FFFF0F
(0000000046.885069) vcan0 4A0#00000000CCFFCCFF
(0000000046.885317) vcan0 4A8#FF3F0100000000C1
(0000000046.885495) vcan0 5A0#FF000007A400502B
(0000000046.893806) vcan0 0AE#2120000000000100
(0000000046.893946) vcan0 1A0#004F0000FEFE00D2
(0000000046.894227) vcan0 2A0#0000000000002020
(0000000046.894402) vcan0 4A0#00000000CCFFCCFF
(0000000046.904045) vcan0 0AE#3130000000000100
(0000000046.904057) vcan0 1A0#004F0000FEFE00D3
(0000000046.904285) vcan0 1AC#814100006945FF13
(0000000046.904487) vcan0 2A0#0000000000003030
(0000000046.904749) vcan0 3A0#3EC10000F0FFFF0F
(0000000046.905037) vcan0 4A0#00000000CCFFCCFF
(0000000046.905281) vcan0 4A8#FF3F008000001050
(0000000046.905548) vcan0 5A0#FF000017A400502B
(0000000046.913751) vcan0 0AE#4140000000000100
(0000000046.913979) vcan0 1A0#004F0000FEFE00D4
(0000000046.914257) vcan0 2A0#0000000000004040
(0000000046.914539) vcan0 4A0#00000000CCFFCCFF
(0000000046.923895) vcan0 0AE#5150000000000100
(0000000046.924080) vcan0 1A0#004F0000FEFE00D5
(0000000046.924277) vcan0 1AC#824200006945FF13
(0000000046.924598) vcan0 2A0#0000000000005050
(0000000046.924743) vcan0 3A0#3DC20000F0FFFF0F
(0000000046.925007) vcan0 4A0#00000000CCFFCCFF
(0000000046.925236) vcan0 4A8#FF3F008000002060
(0000000046.925497) vcan0 5A0#FF000027A400502B
(0000000046.933677) vcan0 0AE#6160000000000100
(0000000046.933959) vcan0 1A0#004F0000FEFE00D6
(0000000046.934244) vcan0 2A0#0000000000006060
(0000000046.934503) vcan0 4A0#00000000CCFFCCFF
(0000000046.943876) vcan0 0AE#7170000000000100
(0000000046.944111) vcan0 1A0#004F0000FEFE00D7
(0000000046.944279) vcan0 1AC#834300006945FF13
(0000000046.944519) vcan0 2A0#0000000000007070
(0000000046.944775) vcan0 3A0#3CC30000F0FFFF0F
(0000000046.945046) vcan0 4A0#00000000CCFFCCFF
(0000000046.945347) vcan0 4A8#FF3F008000003070
(0000000046.945539) vcan0 5A0#FF000037A400502B
(0000000046.945768) vcan0 723#04030000020000
(0000000046.953618) vcan0 0AE#8180000000000100
(0000000046.954014) vcan0 1A0#004F0000FEFE00D8
(0000000046.954388) vcan0 2A0#0000000000008080
(0000000046.954632) vcan0 4A0#00000000CCFFCCFF
(0000000046.963860) vcan0 0AE#9190000000000100
(0000000046.964135) vcan0 1A0#004F0000FEFE00D9
(0000000046.964355) vcan0 1AC#844400006945FF13
(0000000046.964592) vcan0 2A0#0000000000009090
(0000000046.964813) vcan0 3A0#3BC40000F0FFFF0F
(0000000046.965040) vcan0 4A0#00000000CCFFCCFF
(0000000046.965363) vcan0 4A8#FF3F008000004000
(0000000046.965535) vcan0 5A0#FF000047A400502B
(0000000046.973714) vcan0 0AE#A1A0000000000100
(0000000046.973981) vcan0 1A0#004F0000FEFE00DA
(0000000046.974353) vcan0 2A0#000000000000A0A0
(0000000046.974539) vcan0 4A0#00000000CCFFCCFF
(0000000046.983875) vcan0 0AE#B1B0000000000100
(0000000046.984096) vcan0 1A0#004F0000FEFE00DB
(0000000046.984312) vcan0 1AC#854500006945FF13
(0000000046.984541) vcan0 2A0#000000000000B0B0
(0000000046.984808) vcan0 3A0#3AC50000F0FFFF0F
(0000000046.985043) vcan0 4A0#00000000CCFFCCFF
(0000000046.985306) vcan0 4A8#FF3F008000005010
(0000000046.985540) vcan0 5A0#FF000057A400502B
(0000000046.993657) vcan0 0AE#C1C0000000000100
(0000000046.993961) vcan0 1A0#004F0000FEFE00DC
(0000000046.994298) vcan0 2A0#000000000000C0C0
(0000000046.994530) vcan0 4A0#00000000CCFFCCFF
(0000000047.003800) vcan0 0AE#D1D0000000000100
(0000000047.004028) vcan0 1A0#004F0000FEFE00DD
(0000000047.004264) vcan0 1AC#864600006945FF13
(0000000047.004540) vcan0 2A0#000000000000D0D0
(0000000047.004750) vcan0 3A0#39C60000F0FFFF0F
(0000000047.005025) vcan0 4A0#00000000CCFFCCFF
(0000000047.005302) vcan0 4A8#FF3F008000006020
(0000000047.005520) vcan0 5A0#FF000067A400502B
(0000000047.013678) vcan0 0AE#E1E0000000000100
(0000000047.013931) vcan0 1A0#004F0000FEFE00DE
(0000000047.014295) vcan0 2A0#000000000000E0E0
(0000000047.014503) vcan0 4A0#00000000CCFFCCFF
(0000000047.023777) vcan0 0AE#F1F0000000000100
(0000000047.024103) vcan0 1A0#004F0000FEFE00DF
(0000000047.024314) vcan0 1AC#874700006945FF13
(0000000047.024534) vcan0 2A0#000000000000F0F0
(0000000047.024765) vcan0 3A0#38C70000F0FFFF0F
(0000000047.025082) vcan0 4A0#00000000CCFFCCFF
(0000000047.025300) vcan0 4A8#FF3F0100000070B1
(0000000047.025525) vcan0 5A0#FF000077A400502B
(0000000047.033647) vcan0 0AE#0100000000000100
(0000000047.034025) vcan0 1A0#004F0000FEFE00D0
(0000000047.034233) vcan0 2A0#0000000000000000
(0000000047.034465) vcan0 4A0#00000000CCFFCCFF
(0000000047.043840) vcan0 0AE#1110000000000100
(0000000047.044070) vcan0 1A0#004F0000FEFE00D1
(0000000047.044360) vcan0 1AC#884800006945FF13
(0000000047.044639) vcan0 2A0#0000000000001010
(0000000047.044841) vcan0 3A0#37C80000F0FFFF0F
(0000000047.045100) vcan0 4A0#00000000CCFFCCFF
(0000000047.045336) vcan0 4A8#FF3F010000008041
(0000000047.045645) vcan0 5A0#FF000087A400502B
(0000000047.045817) vcan0 723#04030000020000
(0000000047.053645) vcan0 0AE#2120000000000100
(0000000047.054019) vcan0 1A0#004F0000FEFE00D2
(0000000047.054255) vcan0 2A0#0000000000002020
(0000000047.054484) vcan0 4A0#00000000CCFFCCFF
(0000000047.063918) vcan0 0AE#3130000000000100
(0000000047.064017) vcan0 1A0#004F0000FEFE00D3
(0000000047.064275) vcan0 1AC#894900006945FF13
(0000000047.064556) vcan0 2A0#0000000000003030
(0000000047.064769) vcan0 3A0#36C90000F0FFFF0F
(0000000047.065008) vcan0 4A0#00000000CCFFCCFF
(0000000047.065270) vcan0 4A8#FF3F010000009051
(0000000047.065507) vcan0 5A0#FF000097A400502B
(0000000047.073683) vcan0 0AE#4140000000000100
(0000000047.073927) vcan0 1A0#004F0000FEFE00D4
(0000000047.074189) vcan0 2A0#0000000000004040
(0000000047.074483) vcan0 4A0#00000000CCFFCCFF
(0000000047.084006) vcan0 0AE#5150000000000100
(0000000047.084085) vcan0 1A0#004F0000FEFE00D5
(0000000047.084360) vcan0 1AC#8A4A00006945FF13
(0000000047.084592) vcan0 2A0#0000000000005050
(0000000047.084778) vcan0 3A0#35CA0000F0FFFF0F
(0000000047.085018) vcan0 4A0#00000000CCFFCCFF
(0000000047.085276) vcan0 4A8#FF3F01000000A061
(0000000047.085509) vcan0 5A0#FF0000A7A400502B
(0000000047.093805) vcan0 0AE#6160000000000100
(0000000047.093959) vcan0 1A0#004F0000FEFE00D6
(0000000047.094207) vcan0 2A0#0000000000006060
(0000000047.094491) vcan0 4A0#00000000CCFFCCFF
(0000000047.103908) vcan0 0AE#7170000000000100
(0000000047.104055) vcan0 1A0#004F0000FEFE00D7
(0000000047.104318) vcan0 1AC#8B4B00006945FF13
(0000000047.104518) vcan0 2A0#0000000000007070
(0000000047.104790) vcan0 3A0#34CB0000F0FFFF0F
(0000000047.105088) vcan0 4A0#00000000CCFFCCFF
(0000000047.105330) vcan0 4A8#FF3F00800000B0F0
(0000000047.105559) vcan0 5A0#FF0000B7A400502B
(0000000047.113776) vcan0 0AE#8180000000000100
(0000000047.113968) vcan0 1A0#004F0000FEFE00D8
(0000000047.114242) vcan0 2A0#0000000000008080
(0000000047.114473) vcan0 4A0#00000000CCFFCCFF
(0000000047.123899) vcan0 0AE#9190000000000100
(0000000047.124083) vcan0 1A0#004F0000FEFE00D9
(0000000047.124321) vcan0 1AC#8C4C00006945FF13
(0000000047.124497) vcan0 2A0#0000000000009090
(0000000047.124794) vcan0 3A0#33CC0000F0FFFF0F
(0000000047.125055) vcan0 4A0#00000000CCFFCCFF
(0000000047.125276) vcan0 4A8#FF3F00800000C080
(0000000047.125580) vcan0 5A0#FF0000C7A400502B
(0000000047.133746) vcan0 0AE#A1A0000000000100
(0000000047.133977) vcan0 1A0#004F0000FEFE00DA
(0000000047.134359) vcan0 2A0#000000000000A0A0
(0000000047.134525) vcan0 4A0#00000000CCFFCCFF
(0000000047.143889) vcan0 0AE#B1B0000000000100
(0000000047.144105) vcan0 1A0#004F0000FEFE00DB
(0000000047.144349) vcan0 1AC#8D4D00006945FF13
(0000000047.144598) vcan0 2A0#000000000000B0B0
(0000000047.144809) vcan0 3A0#32CD0000F0FFFF0F
(0000000047.145044) vcan0 4A0#00000000CCFFCCFF
(0000000047.145284) vcan0 4A8#FF3F00800000D090
(0000000047.145536) vcan0 5A0#FF0000D7A400502B
(0000000047.145759) vcan0 723#04030000020000
(0000000047.153697) vcan0 0AE#C1C0000000000100
(0000000047.153938) vcan0 1A0#004F0000FEFE00DC
(0000000047.154332) vcan0 2A0#000000000000C0C0
(0000000047.154549) vcan0 4A0#00000000CCFFCCFF
(0000000047.163899) vcan0 0AE#D1D0000000000100
(0000000047.164074) vcan0 1A0#004F0000FEFE00DD
(0000000047.164312) vcan0 1AC#8E4E00006945FF13
(0000000047.164596) vcan0 2A0#000000000000D0D0
(0000000047.164753) vcan0 3A0#31CE0000F0FFFF0F
(0000000047.165071) vcan0 4A0#00000000CCFFCCFF
(0000000047.165261) vcan0 4A8#FF3F00800000E0A0
(0000000047.165529) vcan0 5A0#FF0000E7A400502B
(0000000047.173748) vcan0 0AE#E1E0000000000100
(0000000047.174021) vcan0 1A0#004F0000FEFE00DE
(0000000047.174307) vcan0 2A0#000000000000E0E0
(0000000047.174588) vcan0 4A0#00000000CCFFCCFF
(0000000047.183888) vcan0 0AE#F1F0000000000100
(0000000047.184081) vcan0 1A0#004F0000FEFE00DF
(0000000047.184291) vcan0 1AC#8F4F00006945FF13
(0000000047.184578) vcan0 2A0#000000000000F0F0
(0000000047.184820) vcan0 3A0#30CF0000F0FFFF0F
(0000000047.185047) vcan0 4A0#00000000CCFFCCFF
(0000000047.185287) vcan0 4A8#FF3F01000000F031
(0000000047.185563) vcan0 5A0#FF0000F7A400502B
(0000000047.193761) vcan0 0AE#0100000000000100
(0000000047.193904) vcan0 1A0#004F0000FEFE00D0
(0000000047.194285) vcan0 2A0#0000000000000000
(0000000047.194541) vcan0 4A0#00000000CCFFCCFF
(0000000047.204038) vcan0 0AE#1110000000000100
(0000000047.204053) vcan0 1A0#004F0000FEFE00D1
(0000000047.204346) vcan0 1AC#804000006945FF13
(0000000047.204625) vcan0 2A0#0000000000001010
(0000000047.204875) vcan0 3A0#3FC00000F0FFFF0F
(0000000047.205096) vcan0 4A0#00000000CCFFCCFF
(0000000047.205364) vcan0 4A8#FF3F0100000000C1
(0000000047.205630) vcan0 5A0#FF000007A400502B
(0000000047.213725) vcan0 0AE#2120000000000100
(0000000047.213908) vcan0 1A0#004F0000FEFE00D2
(0000000047.214284) vcan0 2A0#0000000000002020
(0000000047.214519) vcan0 4A0#00000000CCFFCCFF
(0000000047.223865) vcan0 0AE#3130000000000100
(0000000047.224071) vcan0 1A0#00480000FEFE00D3
(0000000047.224352) vcan0 1AC#814100006945FF13
(0000000047.224638) vcan0 2A0#0000000000003030
(0000000047.224817) vcan0 3A0#3EC10000F0FFFF0F
(0000000047.225100) vcan0 4A0#00000000CCFFCCFF
(0000000047.225380) vcan0 4A8#FF3F008000001050
(0000000047.225567) vcan0 5A0#FF000014A400502B
(0000000047.233712) vcan0 0AE#4140000000000100
(0000000047.233946) vcan0 1A0#00480000FEFE00D4
(0000000047.234263) vcan0 2A0#0000000000004040
(0000000047.234542) vcan0 4A0#00000000CCFFCCFF
(0000000047.243868) vcan0 0AE#5150000000000100
(0000000047.244102) vcan0 1A0#00480000FEFE00D5
(0000000047.244310) vcan0 1AC#824200006945FF13
(0000000047.244570) vcan0 2A0#0000000000005050
(0000000047.244813) vcan0 3A0#3DC20000F0FFFF0F
(0000000047.245074) vcan0 4A0#00000000CCFFCCFF
(0000000047.245321) vcan0 4A8#FF3F008000002060
(0000000047.245555) vcan0 5A0#FF000024A400502B
(0000000047.245829) vcan0 723#04030000020000
(0000000047.253665) vcan0 0AE#6160000000000100
(0000000047.253908) vcan0 1A0#00480000FEFE00D6
(0000000047.254218) vcan0 2A0#0000000000006060
(0000000047.254476) vcan0 4A0#00000000CCFFCCFF
(0000000047.263816) vcan0 0AE#7170000000000100
(0000000047.264031) vcan0 1A0#00480000FEFE00D7
(0000000047.264346) vcan0 1AC#834300006945FF13
(0000000047.264625) vcan0 2A0#0000000000007070
(0000000047.264838) vcan0 3A0#3CC30000F0FFFF0F
(0000000047.265101) vcan0 4A0#00000000CCFFCCFF
(0000000047.265332) vcan0 4A8#FF3F0100000030F1
(0000000047.265623) vcan0 5A0#FF000034A400502B
(0000000047.273651) vcan0 0AE#8180000000000100
(0000000047.273876) vcan0 1A0#00480000FEFE00D8
(0000000047.274288) vcan0 2A0#0000000000008080
(0000000047.274510) vcan0 4A0#00000000CCFFCCFF
(0000000047.283831) vcan0 0AE#9190000000000100
(0000000047.284177) vcan0 1A0#00480000FEFE00D9
(0000000047.284327) vcan0 1AC#844400006945FF13
(0000000047.284535) vcan0 2A0#0000000000009090
(0000000047.284792) vcan0 3A0#3BC40000F0FFFF0F
(0000000047.285113) vcan0 4A0#00000000CCFFCCFF
(0000000047.285318) vcan0 4A8#FF3F010000004081
(0000000047.285521) vcan0 5A0#FF000044A400502B
(0000000047.293664) vcan0 0AE#A1A0000000000100
(0000000047.293863) vcan0 1A0#00480000FEFE00DA
(0000000047.294206) vcan0 2A0#000000000000A0A0
(0000000047.294467) vcan0 4A0#00000000CCFFCCFF
(0000000047.304006) vcan0 0AE#B1B0000000000100
(0000000047.304115) vcan0 1A0#00480000FEFE00DB
(0000000047.304333) vcan0 1AC#854500006945FF13
(0000000047.304600) vcan0 2A0#000000000000B0B0
(0000000047.304789) vcan0 3A0#3AC50000F0FFFF0F
(0000000047.305148) vcan0 4A0#00000000CCFFCCFF
(0000000047.305317) vcan0 4A8#FF3F010000005091
(0000000047.305553) vcan0 5A0#FF000054A400502B
(0000000047.313796) vcan0 0AE#C1C0000000000100
(0000000047.313924) vcan0 1A0#00480000FEFE00DC
(0000000047.314273) vcan0 2A0#000000000000C0C0
(0000000047.314516) vcan0 4A0#00000000CCFFCCFF
(0000000047.323846) vcan0 0AE#D1D0000000000100
(0000000047.324095) vcan0 1A0#00480000FEFE00DD
(0000000047.324336) vcan0 1AC#864600006945FF13
(0000000047.324540) vcan0 2A0#000000000000D0D0
(0000000047.324793) vcan0 3A0#39C60000F0FFFF0F
(0000000047.325082) vcan0 4A0#00000000CCFFCCFF
(0000000047.325336) vcan0 4A8#FF3F008000006020
(0000000047.325562) vcan0 5A0#FF000064A400502B
(0000000047.333676) vcan0 0AE#E1E0000000000100
(0000000047.333927) vcan0 1A0#00480000FEFE00DE
(0000000047.334245) vcan0 2A0#000000000000E0E0
(0000000047.334500) vcan0 4A0#00000000CCFFCCFF
(0000000047.344080) vcan0 0AE#F1F0000000000100
(0000000047.344095) vcan0 1A0#00480000FEFE00DF
(0000000047.344329) vcan0 1AC#874700006945FF13
(0000000047.344642) vcan0 2A0#000000000000F0F0
(0000000047.344878) vcan0 3A0#38C70000F0FFFF0F
(0000000047.345104) vcan0 4A0#00000000CCFFCCFF
(0000000047.345328) vcan0 4A8#FF3F0100000070B1
(0000000047.345561) vcan0 5A0#FF000074A400502B
(0000000047.345808) vcan0 723#04030000020000
(0000000047.353721) vcan0 0AE#0100000000000100
(0000000047.353910) vcan0 1A0#00480000FEFE00D0
(0000000047.354264) vcan0 2A0#0000000000000000
(0000000047.354572) vcan0 4A0#00000000CCFFCCFF
(0000000047.363883) vcan0 0AE#1110000000000100
(0000000047.364140) vcan0 1A0#00480000FEFE00D1
(0000000047.364399) vcan0 1AC#884800006945FF13
(0000000047.364693) vcan0 2A0#0000000000001010
(0000000047.364800) vcan0 3A0#37C80000F0FFFF0F
(0000000047.365108) vcan0 4A0#00000000CCFFCCFF
(0000000047.365343) vcan0 4A8#FF3F010000008041
(0000000047.365589) vcan0 5A0#FF000084A400502B
(0000000047.373738) vcan0 0AE#2120000000000100
(0000000047.373965) vcan0 1A0#00480000FEFE00D2
(0000000047.374255) vcan0 2A0#0000000000002020
(0000000047.374485) vcan0 4A0#00000000CCFFCCFF
(0000000047.383905) vcan0 0AE#3130000000000100
(0000000047.384106) vcan0 1A0#00480000FEFE00D3
(0000000047.384411) vcan0 1AC#894900006945FF13
(0000000047.384568) vcan0 2A0#0000000000003030
(0000000047.384830) vcan0 3A0#36C90000F0FFFF0F
(0000000047.385139) vcan0 4A0#00000000CCFFCCFF
(0000000047.385352) vcan0 4A8#FF3F010000009051
(0000000047.385584) vcan0 5A0#FF000094A400502B
(0000000047.393754) vcan0 0AE#4140000000000100
(0000000047.393915) vcan0 1A0#00480000FEFE00D4
(0000000047.394293) vcan0 2A0#0000000000004040
(0000000047.394568) vcan0 4A0#00000000CCFFCCFF
(0000000047.403891) vcan0 0AE#5150000000000100
(0000000047.404058) vcan0 1A0#00480000FEFE00D5
(0000000047.404374) vcan0 1AC#8A4A00006945FF13
(0000000047.404595) vcan0 2A0#0000000000005050
(0000000047.404898) vcan0 3A0#35CA0000F0FFFF0F
(0000000047.405149) vcan0 4A0#00000000CCFFCCFF
(0000000047.405349) vcan0 4A8#FF3F00800000A0E0
(0000000047.405631) vcan0 5A0#FF0000A4A400502B
(0000000047.413677) vcan0 0AE#6160000000000100
(0000000047.413890) vcan0 1A0#00480000FEFE00D6
(0000000047.414295) vcan0 2A0#0000000000006060
(0000000047.414490) vcan0 4A0#00000000CCFFCCFF
(0000000047.423902) vcan0 0AE#7170000000000100
(0000000047.424047) vcan0 1A0#00480000FEFE00D7
(0000000047.424342) vcan0 1AC#8B4B00006945FF13
(0000000047.424633) vcan0 2A0#0000000000007070
(0000000047.424855) vcan0 3A0#34CB0000F0FFFF0F
(0000000047.425117) vcan0 4A0#00000000CCFFCCFF
(0000000047.425337) vcan0 4A8#FF3F00800000B0F0
(0000000047.425626) vcan0 5A0#FF0000B4A400502B
(0000000047.433715) vcan0 0AE#8180000000000100
(0000000047.433916) vcan0 1A0#00480000FEFE00D8
(0000000047.434236) vcan0 2A0#0000000000008080
(0000000047.434555) vcan0 4A0#00000000CCFFCCFF
(0000000047.443875) vcan0 0AE#9190000000000100
(0000000047.444139) vcan0 1A0#00480000FEFE00D9
(0000000047.444391) vcan0 1AC#8C4C00006945FF13
(0000000047.444643) vcan0 2A0#0000000000009090
(0000000047.444836) vcan0 3A0#33CC0000F0FFFF0F
(0000000047.445177) vcan0 4A0#00000000CCFFCCFF
(0000000047.445332) vcan0 4A8#FF3F00800000C080
(0000000047.445553) vcan0 5A0#FF0000C4A400502B
(0000000047.445816) vcan0 723#04030000020000
(0000000047.453693) vcan0 0AE#A1A0000000000100
(0000000047.453918) vcan0 1A0#00480000FEFE00DA
(0000000047.454301) vcan0 2A0#000000000000A0A0
(0000000047.454543) vcan0 4A0#00000000CCFFCCFF
(0000000047.463828) vcan0 0AE#B1B0000000000100
(0000000047.464078) vcan0 1A0#00480000FEFE00DB
(0000000047.464428) vcan0 1AC#8D4D00006945FF13
(0000000047.464603) vcan0 2A0#000000000000B0B0
(0000000047.464839) vcan0 3A0#32CD0000F0FFFF0F
(0000000047.465063) vcan0 4A0#00000000CCFFCCFF
(0000000047.465334) vcan0 4A8#FF3F01000000D011
(0000000047.465600) vcan0 5A0#FF0000D4A400502B
(0000000047.473733) vcan0 0AE#C1C0000000000100
(0000000047.473910) vcan0 1A0#00480000FEFE00DC
(0000000047.474278) vcan0 2A0#000000000000C0C0
(0000000047.474481) vcan0 4A0#00000000CCFFCCFF
(0000000047.483850) vcan0 0AE#D1D0000000000100
(0000000047.484035) vcan0 1A0#00480000FEFE00DD
(0000000047.484341) vcan0 1AC#8E4E00006945FF13
(0000000047.484683) vcan0 2A0#000000000000D0D0
(0000000047.484888) vcan0 3A0#31CE0000F0FFFF0F
(0000000047.485109) vcan0 4A0#00000000CCFFCCFF
(0000000047.485337) vcan0 4A8#FF3F01000000E021
(0000000047.485647) vcan0 5A0#FF0000E4A400502B
(0000000047.493614) vcan0 0AE#E1E0000000000100
(0000000047.493863) vcan0 1A0#00480000FEFE00DE
(0000000047.494143) vcan0 2A0#000000000000E0E0
(0000000047.494377) vcan0 4A0#00000000CCFFCCFF
(0000000047.503840) vcan0 0AE#F1F0000000000100
(0000000047.504066) vcan0 1A0#00480000FEFE00DF
(0000000047.504297) vcan0 1AC#8F4F00006945FF13
(0000000047.504578) vcan0 2A0#000000000000F0F0
(0000000047.504778) vcan0 3A0#30CF0000F0FFFF0F
(0000000047.505070) vcan0 4A0#00000000CCFFCCFF
(0000000047.505337) vcan0 4A8#FF3F00800000F0B0
(0000000047.505566) vcan0 5A0#FF0000F4A400502B
(0000000047.513633) vcan0 0AE#0100000000000100
(0000000047.514037) vcan0 1A0#00480000FEFE00D0
(0000000047.514208) vcan0 2A0#0000000000000000
(0000000047.514470) vcan0 4A0#00000000CCFFCCFF
(0000000047.523893) vcan0 0AE#1110000000000100
(0000000047.524049) vcan0 1A0#00480000FEFE00D1
(0000000047.524297) vcan0 1AC#804000006945FF13
(0000000047.524547) vcan0 2A0#0000000000001010
(0000000047.524786) vcan0 3A0#3FC00000F0FFFF0F
(0000000047.525046) vcan0 4A0#00000000CCFFCCFF
(0000000047.525286) vcan0 4A8#FF3F008000000040
(0000000047.525547) vcan0 5A0#FF000004A400502B
(0000000047.533686) vcan0 0AE#2120000000000100
(0000000047.533886) vcan0 1A0#00480000FEFE00D2
(0000000047.534206) vcan0 2A0#0000000000002020
(0000000047.534538) vcan0 4A0#00000000CCFFCCFF
(0000000047.543997) vcan0 0AE#3130000000000100
(0000000047.544025) vcan0 1A0#00480000FEFE00D3
(0000000047.544365) vcan0 1AC#814100006945FF13
(0000000047.544630) vcan0 2A0#0000000000003030
(0000000047.544812) vcan0 3A0#3EC10000F0FFFF0F
(0000000047.545106) vcan0 4A0#00000000CCFFCCFF
(0000000047.545312) vcan0 4A8#FF3F008000001050
(0000000047.545563) vcan0 5A0#FF000014A400502B
(0000000047.545779) vcan0 723#04030000020000
(0000000047.553750) vcan0 0AE#4140000000000100
(0000000047.553888) vcan0 1A0#00480000FEFE00D4
(0000000047.554245) vcan0 2A0#0000000000004040
(0000000047.554465) vcan0 4A0#00000000CCFFCCFF
(0000000047.563839) vcan0 0AE#5150000000000100
(0000000047.564075) vcan0 1A0#00480000FEFE00D5
(0000000047.564313) vcan0 1AC#824200006945FF13
(0000000047.564646) vcan0 2A0#0000000000005050
(0000000047.564810) vcan0 3A0#3DC20000F0FFFF0F
(0000000047.565079) vcan0 4A0#00000000CCFFCCFF
(0000000047.565313) vcan0 4A8#FF3F008000002060
(0000000047.565551) vcan0 5A0#FF000024A400502B
(0000000047.573685) vcan0 0AE#6160000000000100
(0000000047.573885) vcan0 1A0#00480000FEFE00D6
(0000000047.574212) vcan0 2A0#0000000000006060
(0000000047.574520) vcan0 4A0#00000000CCFFCCFF
(0000000047.583902) vcan0 0AE#7170000000000100
(0000000047.584070) vcan0 1A0#00480000FEFE00D7
(0000000047.584291) vcan0 1AC#834300006945FF13
(0000000047.584572) vcan0 2A0#0000000000007070
(0000000047.584863) vcan0 3A0#3CC30000F0FFFF0F
(0000000047.585056) vcan0 4A0#00000000CCFFCCFF
(0000000047.585416) vcan0 4A8#FF3F008000003070
(0000000047.585583) vcan0 5A0#FF000034A400502B
(0000000047.593827) vcan0 0AE#8180000000000100
(0000000047.593902) vcan0 1A0#00480000FEFE00D8
(0000000047.594284) vcan0 2A0#0000000000008080
(0000000047.594471) vcan0 4A0#00000000CCFFCCFF
(0000000047.603955) vcan0 0AE#9190000000000100
(0000000047.604138) vcan0 1A0#00480000FEFE00D9
(0000000047.604338) vcan0 1AC#844400006945FF13
(0000000047.604666) vcan0 2A0#0000000000009090
(0000000047.604794) vcan0 3A0#3BC40000F0FFFF0F
(0000000047.605091) vcan0 4A0#00000000CCFFCCFF
(0000000047.605359) vcan0 4A8#FF3F010000004081
(0000000047.605566) vcan0 5A0#FF000044A400502B
(0000000047.613861) vcan0 0AE#A1A0000000000100
(0000000047.613941) vcan0 1A0#00480000FEFE00DA
(0000000047.614220) vcan0 2A0#000000000000A0A0
(0000000047.614564) vcan0 4A0#00000000CCFFCCFF
(0000000047.623891) vcan0 0AE#B1B0000000000100
(0000000047.624111) vcan0 1A0#00480000FEFE00DB
(0000000047.624329) vcan0 1AC#854500006945FF13
(0000000047.624616) vcan0 2A0#000000000000B0B0
(0000000047.624807) vcan0 3A0#3AC50000F0FFFF0F
(0000000047.625101) vcan0 4A0#00000000CCFFCCFF
(0000000047.625305) vcan0 4A8#FF3F010000005091
(0000000047.625590) vcan0 5A0#FF000054A400502B
(0000000047.633710) vcan0 0AE#C1C0000000000100
(0000000047.633889) vcan0 1A0#00480000FEFE00DC
(0000000047.634287) vcan0 2A0#000000000000C0C0
(0000000047.634533) vcan0 4A0#00000000CCFFCCFF
(0000000047.643968) vcan0 0AE#D1D0000000000100
(0000000047.644145) vcan0 1A0#00480000FEFE00DD
(0000000047.644394) vcan0 1AC#864600006945FF13
(0000000047.644569) vcan0 2A0#000000000000D0D0
(0000000047.644818) vcan0 3A0#39C60000F0FFFF0F
(0000000047.645064) vcan0 4A0#00000000CCFFCCFF
(0000000047.645367) vcan0 4A8#FF3F0100000060A1
(0000000047.645600) vcan0 5A0#FF000064A400502B
(0000000047.645771) vcan0 723#04030000020000
(0000000047.653771) vcan0 0AE#E1E0000000000100
(0000000047.653951) vcan0 1A0#00480000FEFE00DE
(0000000047.654250) vcan0 2A0#000000000000E0E0
(0000000047.654536) vcan0 4A0#00000000CCFFCCFF
(0000000047.663875) vcan0 0AE#F1F0000000000100
(0000000047.664102) vcan0 1A0#00480000FEFE00DF
(0000000047.664379) vcan0 1AC#874700006945FF13
(0000000047.664569) vcan0 2A0#000000000000F0F0
(0000000047.664824) vcan0 3A0#38C70000F0FFFF0F
(0000000047.665122) vcan0 4A0#00000000CCFFCCFF
(0000000047.665354) vcan0 4A8#FF3F0100000070B1
(0000000047.665566) vcan0 5A0#FF000074A400502B
(0000000047.673772) vcan0 0AE#0100000000000100
(0000000047.673967) vcan0 1A0#00480000FEFE00D0
(0000000047.674270) vcan0 2A0#0000000000000000
(0000000047.674523) vcan0 4A0#00000000CCFFCCFF
(0000000047.683871) vcan0 0AE#1110000000000100
(0000000047.684113) vcan0 1A0#00480000FEFE00D1
(0000000047.684297) vcan0 1AC#884800006945FF13
(0000000047.684623) vcan0 2A0#0000000000001010
(0000000047.684842) vcan0 3A0#37C80000F0FFFF0F
(0000000047.685077) vcan0 4A0#00000000CCFFCCFF
(0000000047.685425) vcan0 4A8#FF3F0080000080C0
(0000000047.685586) vcan0 5A0#FF000084A400502B
(0000000047.693599) vcan0 0AE#2120000000000100
(0000000047.693887) vcan0 1A0#00480000FEFE00D2
(0000000047.694218) vcan0 2A0#0000000000002020
(0000000047.694488) vcan0 4A0#00000000CCFFCCFF
(0000000047.703918) vcan0 0AE#3130000000000100
(0000000047.704125) vcan0 1A0#00480000FEFE00D3
(0000000047.704359) vcan0 1AC#894900006945FF13
(0000000047.704690) vcan0 2A0#0000000000003030
(0000000047.704897) vcan0 3A0#36C90000F0FFFF0F
(0000000047.705105) vcan0 4A0#00000000CCFFCCFF
(0000000047.705340) vcan0 4A8#FF3F010000009051
(0000000047.705689) vcan0 5A0#FF000094A400502B
(0000000047.713727) vcan0 0AE#4140000000000100
(0000000047.713921) vcan0 1A0#00480000FEFE00D4
(0000000047.714282) vcan0 2A0#0000000000004040
(0000000047.714481) vcan0 4A0#00000000CCFFCCFF
(0000000047.723956) vcan0 0AE#5150000000000100
(0000000047.724107) vcan0 1A0#004F0000FEFE00D5
(0000000047.724382) vcan0 1AC#8A4A00006945FF13
(0000000047.724562) vcan0 2A0#0000000000005050
(0000000047.724825) vcan0 3A0#35CA0000F0FFFF0F
(0000000047.725109) vcan0 4A0#00000000CCFFCCFF
(0000000047.725374) vcan0 4A8#FF3F01000000A061
(0000000047.725609) vcan0 5A0#FF0000A7A400502B
(0000000047.733629) vcan0 0AE#6160000000000100
(0000000047.733883) vcan0 1A0#004F0000FEFE00D6
(0000000047.734259) vcan0 2A0#0000000000006060
(0000000047.734465) vcan0 4A0#00000000CCFFCCFF
(0000000047.743826) vcan0 0AE#7170000000000100
(0000000047.744053) vcan0 1A0#004F0000FEFE00D7
(0000000047.744305) vcan0 1AC#8B4B00006945FF13
(0000000047.744566) vcan0 2A0#0000000000007070
(0000000047.744803) vcan0 3A0#34CB0000F0FFFF0F
(0000000047.745064) vcan0 4A0#00000000CCFFCCFF
(0000000047.745300) vcan0 4A8#FF3F01000000B071
(0000000047.745563) vcan0 5A0#FF0000B7A400502B
(0000000047.745773) vcan0 723#04030000020000
(0000000047.753720) vcan0 0AE#8180000000000100
(0000000047.753904) vcan0 1A0#004F0000FEFE00D8
(0000000047.754297) vcan0 2A0#0000000000008080
(0000000047.754506) vcan0 4A0#00000000CCFFCCFF
(0000000047.763818) vcan0 0AE#9190000000000100
(0000000047.764039) vcan0 1A0#004F0000FEFE00D9
(0000000047.764296) vcan0 1AC#8C4C00006945FF13
(0000000047.764557) vcan0 2A0#0000000000009090
(0000000047.764802) vcan0 3A0#33CC0000F0FFFF0F
(0000000047.765078) vcan0 4A0#00000000CCFFCCFF
(0000000047.765305) vcan0 4A8#FF3F00800000C080
(0000000047.765536) vcan0 5A0#FF0000C7A400502B
(0000000047.773739) vcan0 0AE#A1A0000000000100
(0000000047.773888) vcan0 1A0#004F0000FEFE00DA
(0000000047.774222) vcan0 2A0#000000000000A0A0
(0000000047.774458) vcan0 4A0#00000000CCFFCCFF
(0000000047.783918) vcan0 0AE#B1B0000000000100
(0000000047.784011) vcan0 1A0#004F0000FEFE00DB
(0000000047.784303) vcan0 1AC#8D4D00006945FF13
(0000000047.784539) vcan0 2A0#000000000000B0B0
(0000000047.784804) vcan0 3A0#32CD0000F0FFFF0F
(0000000047.785044) vcan0 4A0#00000000CCFFCCFF
(0000000047.785370) vcan0 4A8#FF3F00800000D090
(0000000047.785615) vcan0 5A0#FF0000D7A400502B
(0000000047.793643) vcan0 0AE#C1C0000000000100
(0000000047.793927) vcan0 1A0#004F0000FEFE00DC
(0000000047.794229) vcan0 2A0#000000000000C0C0
(0000000047.794514) vcan0 4A0#00000000CCFFCCFF
(0000000047.803882) vcan0 0AE#D1D0000000000100
(0000000047.804085) vcan0 1A0#004F0000FEFE00DD
(0000000047.804314) vcan0 1AC#8E4E00006945FF13
(0000000047.804571) vcan0 2A0#000000000000D0D0
(0000000047.804811) vcan0 3A0#31CE0000F0FFFF0F
(0000000047.805050) vcan0 4A0#00000000CCFFCCFF
(0000000047.805285) vcan0 4A8#FF3F01000000E021
(0000000047.805549) vcan0 5A0#FF0000E7A400502B
(0000000047.813661) vcan0 0AE#E1E0000000000100
(0000000047.813912) vcan0 1A0#004F0000FEFE00DE
(0000000047.814203) vcan0 2A0#000000000000E0E0
(0000000047.814494) vcan0 4A0#00000000CCFFCCFF
(0000000047.823875) vcan0 0AE#F1F0000000000100
(0000000047.824104) vcan0 1A0#004F0000FEFE00DF
(0000000047.824390) vcan0 1AC#8F4F00006945FF13
(0000000047.824567) vcan0 2A0#000000000000F0F0
(0000000047.824835) vcan0 3A0#30CF0000F0FFFF0F
(0000000047.825134) vcan0 4A0#00000000CCFFCCFF
(0000000047.825354) vcan0 4A8#FF3F00800000F0B0
(0000000047.825592) vcan0 5A0#FF0000F7A400502B
(0000000047.833682) vcan0 0AE#0100000000000100
(0000000047.833912) vcan0 1A0#004F0000FEFE00D0
(0000000047.834283) vcan0 2A0#0000000000000000
(0000000047.834536) vcan0 4A0#00000000CCFFCCFF
(0000000047.843877) vcan0 0AE#1110000000000100
(0000000047.844131) vcan0 1A0#004F0000FEFE00D1
(0000000047.844375) vcan0 1AC#804000006945FF13
(0000000047.844674) vcan0 2A0#0000000000001010
(0000000047.844849) vcan0 3A0#3FC00000F0FFFF0F
(0000000047.845132) vcan0 4A0#00000000CCFFCCFF
(0000000047.845416) vcan0 4A8#FF3F0100000000C1
(0000000047.845731) vcan0 5A0#FF000007A400502B
(0000000047.845844) vcan0 723#04030000020000
(0000000047.853684) vcan0 0AE#2120000000000100
(0000000047.853941) vcan0 1A0#004F0000FEFE00D2
(0000000047.854263) vcan0 2A0#0000000000002020
(0000000047.854569) vcan0 4A0#00000000CCFFCCFF
(0000000047.863879) vcan0 0AE#3130000000000100
(0000000047.864131) vcan0 1A0#004F0000FEFE00D3
(0000000047.864385) vcan0 1AC#814100006945FF13
(0000000047.864643) vcan0 2A0#0000000000003030
(0000000047.864879) vcan0 3A0#3EC10000F0FFFF0F
(0000000047.865167) vcan0 4A0#00000000CCFFCCFF
(0000000047.865358) vcan0 4A8#FF3F008000001050
(0000000047.865608) vcan0 5A0#FF000017A400502B
(0000000047.873720) vcan0 0AE#4140000000000100
(0000000047.874003) vcan0 1A0#004F0000FEFE00D4
(0000000047.874228) vcan0 2A0#0000000000004040
(0000000047.874539) vcan0 4A0#00000000CCFFCCFF
(0000000047.883859) vcan0 0AE#5150000000000100
(0000000047.884110) vcan0 1A0#004F0000FEFE00D5
(0000000047.884394) vcan0 1AC#824200006945FF13
(0000000047.884650) vcan0 2A0#0000000000005050
(0000000047.884923) vcan0 3A0#3DC20000F0FFFF0F
(0000000047.885144) vcan0 4A0#00000000CCFFCCFF
(0000000047.885338) vcan0 4A8#FF3F008000002060
(0000000047.885596) vcan0 5A0#FF000027A400502B
(0000000047.893656) vcan0 0AE#6160000000000100
(0000000047.893916) vcan0 1A0#004F0000FEFE00D6
(0000000047.894215) vcan0 2A0#0000000000006060
(0000000047.894489) vcan0 4A0#00000000CCFFCCFF
(0000000047.903847) vcan0 0AE#7170000000000100
(0000000047.904083) vcan0 1A0#004F0000FEFE00D7
(0000000047.904369) vcan0 1AC#834300006945FF13
(0000000047.904555) vcan0 2A0#0000000000007070
(0000000047.904814) vcan0 3A0#3CC30000F0FFFF0F
(0000000047.905054) vcan0 4A0#00000000CCFFCCFF
(0000000047.905317) vcan0 4A8#FF3F0100000030F1
(0000000047.905554) vcan0 5A0#FF000037A400502B
(0000000047.913678) vcan0 0AE#8180000000000100
(0000000047.913911) vcan0 1A0#004F0000FEFE00D8
(0000000047.914299) vcan0 2A0#0000000000008080
(0000000047.914474) vcan0 4A0#00000000CCFFCCFF
(0000000047.923983) vcan0 0AE#9190000000000100
(0000000047.924105) vcan0 1A0#004F0000FEFE00D9
(0000000047.924346) vcan0 1AC#844400006945FF13
(0000000047.924681) vcan0 2A0#0000000000009090
(0000000047.924850) vcan0 3A0#3BC40000F0FFFF0F
(0000000047.925113) vcan0 4A0#00000000CCFFCCFF
(0000000047.925347) vcan0 4A8#FF3F008000004000
(0000000047.925681) vcan0 5A0#FF000047A400502B
(0000000047.933612) vcan0 0AE#A1A0000000000100
(0000000047.933866) vcan0 1A0#004F0000FEFE00DA
(0000000047.934211) vcan0 2A0#000000000000A0A0
(0000000047.934490) vcan0 4A0#00000000CCFFCCFF
(0000000047.943883) vcan0 0AE#B1B0000000000100
(0000000047.944115) vcan0 1A0#004F0000FEFE00DB
(0000000047.944360) vcan0 1AC#854500006945FF13
(0000000047.944581) vcan0 2A0#000000000000B0B0
(0000000047.944827) vcan0 3A0#3AC50000F0FFFF0F
(0000000047.945064) vcan0 4A0#00000000CCFFCCFF
(0000000047.945346) vcan0 4A8#FF3F008000005010
(0000000047.945558) vcan0 5A0#FF000057A400502B
(0000000047.945791) vcan0 723#04030000020000
(0000000047.953650) vcan0 0AE#C1C0000000000100
(0000000047.953949) vcan0 1A0#004F0000FEFE00DC
(0000000047.954290) vcan0 2A0#000000000000C0C0
(0000000047.954480) vcan0 4A0#00000000CCFFCCFF
(0000000047.963830) vcan0 0AE#D1D0000000000100
(0000000047.964049) vcan0 1A0#004F0000FEFE00DD
(0000000047.964310) vcan0 1AC#864600006945FF13
(0000000047.964634) vcan0 2A0#000000000000D0D0
(0000000047.964796) vcan0 3A0#39C60000F0FFFF0F
(0000000047.965058) vcan0 4A0#00000000CCFFCCFF
(0000000047.965340) vcan0 4A8#FF3F0100000060A1
(0000000047.965560) vcan0 5A0#FF000067A400502B
(0000000047.973651) vcan0 0AE#E1E0000000000100
(0000000047.973943) vcan0 1A0#004F0000FEFE00DE
(0000000047.974286) vcan0 2A0#000000000000E0E0
(0000000047.974512) vcan0 4A0#00000000CCFFCCFF
(0000000047.983833) vcan0 0AE#F1F0000000000100
(0000000047.984096) vcan0 1A0#004F0000FEFE00DF
(0000000047.984346) vcan0 1AC#874700006945FF13
(0000000047.984533) vcan0 2A0#000000000000F0F0
(0000000047.984798) vcan0 3A0#38C70000F0FFFF0F
(0000000047.985057) vcan0 4A0#00000000CCFFCCFF
(0000000047.985296) vcan0 4A8#FF3F008000007030
(0000000047.985530) vcan0 5A0#FF000077A400502B
(0000000047.993662) vcan0 0AE#0100000000000100
(0000000047.993929) vcan0 1A0#004F0000FEFE00D0
(0000000047.994165) vcan0 2A0#0000000000000000
(0000000047.994371) vcan0 4A0#00000000CCFFCCFF
(0000000048.003838) vcan0 0AE#1110000000000100
(0000000048.004076) vcan0 1A0#004F0000FEFE00D1
(0000000048.004336) vcan0 1AC#884800006945FF13
(0000000048.004577) vcan0 2A0#0000000000001010
(0000000048.004797) vcan0 3A0#37C80000F0FFFF0F
(0000000048.005092) vcan0 4A0#00000000CCFFCCFF
(0000000048.005297) vcan0 4A8#FF3F0080000080C0
(0000000048.005555) vcan0 5A0#FF000087A400502B
(0000000048.013618) vcan0 0AE#2120000000000100
(0000000048.013909) vcan0 1A0#004F0000FEFE00D2
(0000000048.014284) vcan0 2A0#0000000000002020
(0000000048.014493) vcan0 4A0#00000000CCFFCCFF
(0000000048.023826) vcan0 0AE#3130000000000100
(0000000048.024044) vcan0 1A0#004F0000FEFE00D3
(0000000048.024338) vcan0 1AC#894900006945FF13
(0000000048.024601) vcan0 2A0#0000000000003030
(0000000048.024797) vcan0 3A0#36C90000F0FFFF0F
(0000000048.025060) vcan0 4A0#00000000CCFFCCFF
(0000000048.025347) vcan0 4A8#FF3F010000009051
(0000000048.025640) vcan0 5A0#FF000097A400502B
(0000000048.033797) vcan0 0AE#4140000000000100
(0000000048.033930) vcan0 1A0#004F0000FEFE00D4
(0000000048.034271) vcan0 2A0#0000000000004040
(0000000048.034491) vcan0 4A0#00000000CCFFCCFF
(0000000048.043939) vcan0 0AE#5150000000000100
(0000000048.044082) vcan0 1A0#004F0000FEFE00D5
(0000000048.044347) vcan0 1AC#8A4A00006945FF13
(0000000048.044600) vcan0 2A0#0000000000005050
(0000000048.044798) vcan0 3A0#35CA0000F0FFFF0F
(0000000048.045064) vcan0 4A0#00000000CCFFCCFF
(0000000048.045305) vcan0 4A8#FF3F00800000A0E0
(0000000048.045605) vcan0 5A0#FF0000A7A400502B
(0000000048.045834) vcan0 723#04030000020000
(0000000048.053791) vcan0 0AE#6160000000000100
(0000000048.053937) vcan0 1A0#004F0000FEFE00D6
(0000000048.054286) vcan0 2A0#0000000000006060
(0000000048.054468) vcan0 4A0#00000000CCFFCCFF
(0000000048.063931) vcan0 0AE#7170000000000100
(0000000048.064082) vcan0 1A0#004F0000FEFE00D7
(0000000048.064368) vcan0 1AC#8B4B00006945FF13
(0000000048.064540) vcan0 2A0#0000000000007070
(0000000048.064800) vcan0 3A0#34CB0000F0FFFF0F
(0000000048.065092) vcan0 4A0#00000000CCFFCCFF
(0000000048.065347) vcan0 4A8#FF3F00800000B0F0
(0000000048.065539) vcan0 5A0#FF0000B7A400502B
(0000000048.073631) vcan0 0AE#8180000000000100
(0000000048.073885) vcan0 1A0#004F0000FEFE00D8
(0000000048.074298) vcan0 2A0#0000000000008080
(0000000048.074461) vcan0 4A0#00000000CCFFCCFF
(0000000048.083863) vcan0 0AE#9190000000000100
(0000000048.084082) vcan0 1A0#004F0000FEFE00D9
(0000000048.084312) vcan0 1AC#8C4C00006945FF13
(0000000048.084565) vcan0 2A0#0000000000009090
(0000000048.084806) vcan0 3A0#33CC0000F0FFFF0F
(0000000048.085052) vcan0 4A0#00000000CCFFCCFF
(0000000048.085307) vcan0 4A8#FF3F00800000C080
(0000000048.085544) vcan0 5A0#FF0000C7A400502B
(0000000048.093631) vcan0 0AE#A1A0000000000100
(0000000048.093886) vcan0 1A0#004F0000FEFE00DA
(0000000048.094201) vcan0 2A0#000000000000A0A0
(0000000048.094504) vcan0 4A0#00000000CCFFCCFF
(0000000048.103859) vcan0 0AE#B1B0000000000100
(0000000048.104092) vcan0 1A0#004F0000FEFE00DB
(0000000048.104355) vcan0 1AC#8D4D00006945FF13
(0000000048.104616) vcan0 2A0#000000000000B0B0
(0000000048.104803) vcan0 3A0#32CD0000F0FFFF0F
(0000000048.105113) vcan0 4A0#00000000CCFFCCFF
(0000000048.105308) vcan0 4A8#FF3F01000000D011
(0000000048.105569) vcan0 5A0#FF0000D7A400502B
(0000000048.113635) vcan0 0AE#C1C0000000000100
(0000000048.113883) vcan0 1A0#004F0000FEFE00DC
(0000000048.114220) vcan0 2A0#000000000000C0C0
(0000000048.114487) vcan0 4A0#00000000CCFFCCFF
(0000000048.123845) vcan0 0AE#D1D0000000000100
(0000000048.124058) vcan0 1A0#004F0000FEFE00DD
(0000000048.124390) vcan0 1AC#8E4E00006945FF13
(0000000048.124560) vcan0 2A0#000000000000D0D0
(0000000048.124892) vcan0 3A0#31CE0000F0FFFF0F
(0000000048.125099) vcan0 4A0#00000000CCFFCCFF
(0000000048.125307) vcan0 4A8#FF3F00800000E0A0
(0000000048.125603) vcan0 5A0#FF0000E7A400502B
(0000000048.133806) vcan0 0AE#E1E0000000000100
(0000000048.133935) vcan0 1A0#004F0000FEFE00DE
(0000000048.134319) vcan0 2A0#000000000000E0E0
(0000000048.134530) vcan0 4A0#00000000CCFFCCFF
(0000000048.144025) vcan0 0AE#F1F0000000000100
(0000000048.144047) vcan0 1A0#004F0000FEFE00DF
(0000000048.144486) vcan0 1AC#8F4F00006945FF13
(0000000048.144718) vcan0 2A0#000000000000F0F0
(0000000048.144856) vcan0 3A0#30CF0000F0FFFF0F
(0000000048.145133) vcan0 4A0#00000000CCFFCCFF
(0000000048.145371) vcan0 4A8#FF3F00800000F0B0
(0000000048.145608) vcan0 5A0#FF0000F7A400502B
(0000000048.145831) vcan0 723#04030000020000
(0000000048.153833) vcan0 0AE#0100000000000100
(0000000048.153909) vcan0 1A0#004F0000FEFE00D0
(0000000048.154253) vcan0 2A0#0000000000000000
(0000000048.154488) vcan0 4A0#00000000CCFFCCFF
(0000000048.163964) vcan0 0AE#1110000000000100
(0000000048.164050) vcan0 1A0#004F0000FEFE00D1
(0000000048.164329) vcan0 1AC#804000006945FF13
(0000000048.164566) vcan0 2A0#0000000000001010
(0000000048.164888) vcan0 3A0#3FC00000F0FFFF0F
(0000000048.165075) vcan0 4A0#00000000CCFFCCFF
(0000000048.165318) vcan0 4A8#FF3F0100000000C1
(0000000048.165619) vcan0 5A0#FF000007A400502B
(0000000048.173633) vcan0 0AE#2120000000000100
(0000000048.173935) vcan0 1A0#004F0000FEFE00D2
(0000000048.174206) vcan0 2A0#0000000000002020
(0000000048.174471) vcan0 4A0#00000000CCFFCCFF
(0000000048.183839) vcan0 0AE#3130000000000100
(0000000048.184018) vcan0 1A0#004F0000FEFE00D3
(0000000048.184339) vcan0 1AC#814100006945FF13
(0000000048.184630) vcan0 2A0#0000000000003030
(0000000048.184790) vcan0 3A0#3EC10000F0FFFF0F
(0000000048.185146) vcan0 4A0#00000000CCFFCCFF
(0000000048.185344) vcan0 4A8#FF3F008000001050
(0000000048.185546) vcan0 5A0#FF000017A400502B
(0000000048.193639) vcan0 0AE#4140000000000100
(0000000048.193923) vcan0 1A0#004F0000FEFE00D4
(0000000048.194256) vcan0 2A0#0000000000004040
(0000000048.194475) vcan0 4A0#00000000CCFFCCFF
(0000000048.203840) vcan0 0AE#5150000000000100
(0000000048.204033) vcan0 1A0#004F0000FEFE00D5
(0000000048.204343) vcan0 1AC#824200006945FF13
(0000000048.204592) vcan0 2A0#0000000000005050
(0000000048.204812) vcan0 3A0#3DC20000F0FFFF0F
(0000000048.205177) vcan0 4A0#00000000CCFFCCFF
(0000000048.205316) vcan0 4A8#FF3F0100000020E1
(0000000048.205553) vcan0 5A0#FF000027A400502B
(0000000048.213718) vcan0 0AE#6160000000000100
(0000000048.213947) vcan0 1A0#004F0000FEFE00D6
(0000000048.214232) vcan0 2A0#0000000000006060
(0000000048.214514) vcan0 4A0#00000000CCFFCCFF
(0000000048.224011) vcan0 0AE#7170000000000100
(0000000048.224098) vcan0 1A0#00480000FEFE00D7
(0000000048.224389) vcan0 1AC#834300006945FF13
(0000000048.224619) vcan0 2A0#0000000000007070
(0000000048.224910) vcan0 3A0#3CC30000F0FFFF0F
(0000000048.225083) vcan0 4A0#00000000CCFFCCFF
(0000000048.225319) vcan0 4A8#FF3F008000003070
(0000000048.225576) vcan0 5A0#FF000034A400502B
(0000000048.233631) vcan0 0AE#8180000000000100
(0000000048.233894) vcan0 1A0#00480000FEFE00D8
(0000000048.234212) vcan0 2A0#0000000000008080
(0000000048.234477) vcan0 4A0#00000000CCFFCCFF
(0000000048.243898) vcan0 0AE#9190000000000100
(0000000048.244065) vcan0 1A0#00480000FEFE00D9
(0000000048.244375) vcan0 1AC#844400006945FF13
(0000000048.244562) vcan0 2A0#0000000000009090
(0000000048.244815) vcan0 3A0#3BC40000F0FFFF0F
(0000000048.245056) vcan0 4A0#00000000CCFFCCFF
(0000000048.245320) vcan0 4A8#FF3F010000004081
(0000000048.245552) vcan0 5A0#FF000044A400502B
(0000000048.245793) vcan0 723#04030000020000
(0000000048.253758) vcan0 0AE#A1A0000000000100
(0000000048.253896) vcan0 1A0#00480000FEFE00DA
(0000000048.254266) vcan0 2A0#000000000000A0A0
(0000000048.254493) vcan0 4A0#00000000CCFFCCFF
(0000000048.263829) vcan0 0AE#B1B0000000000100
(0000000048.264081) vcan0 1A0#00480000FEFE00DB
(0000000048.264378) vcan0 1AC#854500006945FF13
(0000000048.264658) vcan0 2A0#000000000000B0B0
(0000000048.264889) vcan0 3A0#3AC50000F0FFFF0F
(0000000048.265059) vcan0 4A0#00000000CCFFCCFF
(0000000048.265358) vcan0 4A8#FF3F010000005091
(0000000048.265623) vcan0 5A0#FF000054A400502B
(0000000048.273750) vcan0 0AE#C1C0000000000100
(0000000048.273928) vcan0 1A0#00480000FEFE00DC
(0000000048.274305) vcan0 2A0#000000000000C0C0
(0000000048.274521) vcan0 4A0#00000000CCFFCCFF
(0000000048.283807) vcan0 0AE#D1D0000000000100
(0000000048.284015) vcan0 1A0#00480000FEFE00DD
(0000000048.284336) vcan0 1AC#864600006945FF13
(0000000048.284600) vcan0 2A0#000000000000D0D0
(0000000048.284791) vcan0 3A0#39C60000F0FFFF0F
(0000000048.285032) vcan0 4A0#00000000CCFFCCFF
(0000000048.285293) vcan0 4A8#FF3F0100000060A1
(0000000048.285565) vcan0 5A0#FF000064A400502B
(0000000048.293614) vcan0 0AE#E1E0000000000100
(0000000048.293872) vcan0 1A0#00480000FEFE00DE
(0000000048.294248) vcan0 2A0#000000000000E0E0
(0000000048.294513) vcan0 4A0#00000000CCFFCCFF
(0000000048.303775) vcan0 0AE#F1F0000000000100
(0000000048.304040) vcan0 1A0#00480000FEFE00DF
(0000000048.304344) vcan0 1AC#874700006945FF13
(0000000048.304558) vcan0 2A0#000000000000F0F0
(0000000048.304794) vcan0 3A0#38C70000F0FFFF0F
(0000000048.305110) vcan0 4A0#00000000CCFFCCFF
(0000000048.305285) vcan0 4A8#FF3F0100000070B1
(0000000048.305546) vcan0 5A0#FF000074A400502B
(0000000048.313633) vcan0 0AE#0100000000000100
(0000000048.313887) vcan0 1A0#00480000FEFE00D0
(0000000048.314254) vcan0 2A0#0000000000000000
(0000000048.314573) vcan0 4A0#00000000CCFFCCFF
(0000000048.323959) vcan0 0AE#1110000000000100
(0000000048.324068) vcan0 1A0#00480000FEFE00D1
(0000000048.324303) vcan0 1AC#884800006945FF13
(0000000048.324654) vcan0 2A0#0000000000001010
(0000000048.324830) vcan0 3A0#37C80000F0FFFF0F
(0000000048.325063) vcan0 4A0#00000000CCFFCCFF
(0000000048.325304) vcan0 4A8#FF3F0080000080C0
(0000000048.325590) vcan0 5A0#FF000084A400502B
(0000000048.333819) vcan0 0AE#2120000000000100
(0000000048.333931) vcan0 1A0#00480000FEFE00D2
(0000000048.334286) vcan0 2A0#0000000000002020
(0000000048.334495) vcan0 4A0#00000000CCFFCCFF
(0000000048.343895) vcan0 0AE#3130000000000100
(0000000048.344095) vcan0 1A0#00480000FEFE00D3
(0000000048.344393) vcan0 1AC#894900006945FF13
(0000000048.344624) vcan0 2A0#0000000000003030
(0000000048.344831) vcan0 3A0#36C90000F0FFFF0F
(0000000048.345068) vcan0 4A0#00000000CCFFCCFF
(0000000048.345347) vcan0 4A8#FF3F0080000090D0
(0000000048.345565) vcan0 5A0#FF000094A400502B
(0000000048.345837) vcan0 723#04030000020000
(0000000048.353729) vcan0 0AE#4140000000000100
(0000000048.353907) vcan0 1A0#00480000FEFE00D4
(0000000048.354336) vcan0 2A0#0000000000004040
(0000000048.354562) vcan0 4A0#00000000CCFFCCFF
(0000000048.363950) vcan0 0AE#5150000000000100
(0000000048.364084) vcan0 1A0#00480000FEFE00D5
(0000000048.364366) vcan0 1AC#8A4A00006945FF13
(0000000048.364626) vcan0 2A0#0000000000005050
(0000000048.364859) vcan0 3A0#35CA0000F0FFFF0F
(0000000048.365121) vcan0 4A0#00000000CCFFCCFF
(0000000048.365356) vcan0 4A8#FF3F00800000A0E0
(0000000048.365617) vcan0 5A0#FF0000A4A400502B
(0000000048.373663) vcan0 0AE#6160000000000100
(0000000048.373913) vcan0 1A0#00480000FEFE00D6
(0000000048.374241) vcan0 2A0#0000000000006060
(0000000048.374529) vcan0 4A0#00000000CCFFCCFF
(0000000048.383844) vcan0 0AE#7170000000000100
(0000000048.384048) vcan0 1A0#00480000FEFE00D7
(0000000048.384375) vcan0 1AC#8B4B00006945FF13
(0000000048.384576) vcan0 2A0#0000000000007070
(0000000048.384877) vcan0 3A0#34CB0000F0FFFF0F
(0000000048.385112) vcan0 4A0#00000000CCFFCCFF
(0000000048.385373) vcan0 4A8#FF3F00800000B0F0
(0000000048.385608) vcan0 5A0#FF0000B4A400502B
(0000000048.393668) vcan0 0AE#8180000000000100
(0000000048.393938) vcan0 1A0#00480000FEFE00D8
(0000000048.394306) vcan0 2A0#0000000000008080
(0000000048.394577) vcan0 4A0#00000000CCFFCCFF
(0000000048.403830) vcan0 0AE#9190000000000100
(0000000048.404122) vcan0 1A0#00480000FEFE00D9
(0000000048.404430) vcan0 1AC#8C4C00006945FF13
(0000000048.404636) vcan0 2A0#0000000000009090
(0000000048.404831) vcan0 3A0#33CC0000F0FFFF0F
(0000000048.405111) vcan0 4A0#00000000CCFFCCFF
(0000000048.405368) vcan0 4A8#FF3F01000000C001
(0000000048.405566) vcan0 5A0#FF0000C4A400502B
(0000000048.413627) vcan0 0AE#A1A0000000000100
(0000000048.413920) vcan0 1A0#00480000FEFE00DA
(0000000048.414287) vcan0 2A0#000000000000A0A0
(0000000048.414521) vcan0 4A0#00000000CCFFCCFF
(0000000048.423857) vcan0 0AE#B1B0000000000100
(0000000048.424052) vcan0 1A0#00480000FEFE00DB
(0000000048.424348) vcan0 1AC#8D4D00006945FF13
(0000000048.424582) vcan0 2A0#000000000000B0B0
(0000000048.424923) vcan0 3A0#32CD0000F0FFFF0F
(0000000048.425125) vcan0 4A0#00000000CCFFCCFF
(0000000048.425318) vcan0 4A8#FF3F00800000D090
(0000000048.425576) vcan0 5A0#FF0000D4A400502B
(0000000048.433694) vcan0 0AE#C1C0000000000100
(0000000048.433985) vcan0 1A0#00480000FEFE00DC
(0000000048.434290) vcan0 2A0#000000000000C0C0
(0000000048.434535) vcan0 4A0#00000000CCFFCCFF
(0000000048.443955) vcan0 0AE#D1D0000000000100
(0000000048.444053) vcan0 1A0#00480000FEFE00DD
